Frequency (Hz),S12 Real,S12 Imaginary
0,0.222932,-0.710092
600060,-0.652019,-0.139741
1200120,-0.67743,-0.104492
1800180,-0.695125,-0.092416
2400240,-0.711628,-0.0803232
3000300,-0.72696,-0.0670173
3600360,-0.739695,-0.0512978
4200420,-0.74993,-0.0333597
4800480,-0.757546,-0.0150604
5400540,-0.762626,0.0033314
6000600,-0.765805,0.0216666
6600660,-0.76733,0.0397842
7200720,-0.767205,0.0573874
7800780,-0.766322,0.0742815
8400840,-0.7645,0.0905061
9000900,-0.761979,0.106457
9600960,-0.758822,0.121625
10201020,-0.755171,0.136102
10801080,-0.750937,0.150328
11401140,-0.746789,0.163837
12001200,-0.742575,0.176837
12601260,-0.738097,0.189627
13201320,-0.733468,0.202286
13801380,-0.728428,0.214889
14401440,-0.723471,0.22694
15001500,-0.717979,0.239077
15601560,-0.712536,0.250794
16201620,-0.706899,0.262052
16801680,-0.701208,0.272855
17401740,-0.695572,0.283537
18001800,-0.689649,0.294206
18601860,-0.683759,0.304677
19201920,-0.677984,0.314535
19801980,-0.671914,0.324549
20402040,-0.665757,0.334386
21002100,-0.65975,0.343987
21602160,-0.653506,0.35331
22202220,-0.647096,0.362957
22802280,-0.640649,0.372233
23402340,-0.634142,0.381397
24002400,-0.627586,0.390042
24602460,-0.620956,0.39899
25202520,-0.618055,0.405107
25802580,-0.611198,0.413527
26402640,-0.603953,0.421841
27002700,-0.596699,0.430179
27602760,-0.589373,0.438632
28202820,-0.581799,0.446778
28802880,-0.574068,0.455193
29402940,-0.566202,0.46361
30003000,-0.558221,0.471673
30603060,-0.549906,0.47874
31203120,-0.54159,0.486791
31803180,-0.533768,0.494783
32403240,-0.526229,0.501547
33003300,-0.518633,0.508235
33603360,-0.511075,0.514698
34203420,-0.503663,0.520945
34803480,-0.495867,0.527449
35403540,-0.488041,0.533879
36003600,-0.480355,0.540072
36603660,-0.472344,0.546813
37203720,-0.464348,0.553051
37803780,-0.456265,0.559267
38403840,-0.447899,0.565559
39003900,-0.439533,0.5717
39603960,-0.430984,0.577641
40204020,-0.422663,0.583299
40804080,-0.413944,0.589015
41404140,-0.405249,0.594471
42004200,-0.396583,0.599654
42604260,-0.387509,0.604921
43204320,-0.378835,0.609806
43804380,-0.369602,0.614859
44404440,-0.360508,0.619648
45004500,-0.351377,0.624086
45604560,-0.342222,0.628634
46204620,-0.333196,0.632995
46804680,-0.323798,0.637203
47404740,-0.314894,0.641176
48004800,-0.30528,0.645283
48604860,-0.295825,0.649129
49204920,-0.286587,0.652753
49804980,-0.277056,0.656519
50405040,-0.26758,0.659993
51005100,-0.258068,0.663341
51605160,-0.248638,0.666547
52205220,-0.238824,0.669756
52805280,-0.229301,0.672801
53405340,-0.219834,0.675501
54005400,-0.210146,0.678289
54605460,-0.200822,0.680982
55205520,-0.191363,0.683546
55805580,-0.182034,0.685943
56405640,-0.172355,0.688166
57005700,-0.162996,0.690449
57605760,-0.153681,0.69228
58205820,-0.144176,0.694383
58805880,-0.134321,0.696092
59405940,-0.124482,0.697637
60006000,-0.114606,0.698845
60606060,-0.104478,0.699804
61206120,-0.0934198,0.70024
61806180,-0.0819758,0.700817
62406240,-0.0712339,0.701672
63006300,-0.0613347,0.702981
63606360,-0.051332,0.704275
64206420,-0.0416589,0.705097
64806480,-0.0317922,0.705638
65406540,-0.0217648,0.705883
66006600,-0.0119976,0.706049
66606660,-0.00208877,0.705891
67206720,0.00806521,0.705713
67806780,0.0178815,0.705552
68406840,0.0277052,0.705065
69006900,0.0375749,0.704456
69606960,0.0475156,0.703754
70207020,0.057445,0.703085
70807080,0.0673942,0.702112
71407140,0.0774131,0.701088
72007200,0.0873326,0.699924
72607260,0.0970133,0.698644
73207320,0.106788,0.697292
73807380,0.116455,0.695755
74407440,0.126175,0.694117
75007500,0.136248,0.692258
75607560,0.146023,0.690355
76207620,0.155703,0.688364
76807680,0.165292,0.686098
77407740,0.17524,0.683831
78007800,0.184884,0.681353
78607860,0.194494,0.678871
79207920,0.20397,0.67631
79807980,0.213453,0.673506
80408040,0.222816,0.670684
81008100,0.232362,0.66744
81608160,0.24197,0.664264
82208220,0.251329,0.661043
82808280,0.260696,0.657449
83408340,0.270124,0.653869
84008400,0.279583,0.650079
84608460,0.288927,0.64626
85208520,0.298017,0.64224
85808580,0.307176,0.638244
86408640,0.316336,0.634117
87008700,0.325377,0.629679
87608760,0.334443,0.625368
88208820,0.343591,0.620635
88808880,0.352485,0.615912
89408940,0.361587,0.610947
90009000,0.370395,0.605968
90609060,0.3792,0.600827
91209120,0.38779,0.595562
91809180,0.39645,0.590259
92409240,0.405105,0.58478
93009300,0.413632,0.579033
93609360,0.422106,0.573202
94209420,0.430396,0.56741
94809480,0.438842,0.561398
95409540,0.447182,0.555144
96009600,0.455103,0.54904
96609660,0.462913,0.542686
97209720,0.471018,0.536154
97809780,0.478935,0.529505
98409840,0.486841,0.522753
99009900,0.494706,0.515589
99609960,0.502459,0.508651
100210021,0.510047,0.501389
100810081,0.517491,0.494125
101410141,0.524687,0.486867
102010201,0.532076,0.47937
102610261,0.539195,0.471744
103210321,0.546297,0.463994
103810381,0.553235,0.456208
104410441,0.559946,0.448363
105010501,0.566827,0.440159
105610561,0.573083,0.432297
106210621,0.579671,0.423813
106810681,0.586388,0.415183
107410741,0.592506,0.406905
108010801,0.59868,0.398302
108610861,0.604618,0.389709
109210921,0.610699,0.380795
109810981,0.616397,0.372005
110411041,0.622072,0.362879
111011101,0.627741,0.353611
111611161,0.632926,0.344487
112211221,0.638273,0.335203
112811281,0.643328,0.325975
113411341,0.648307,0.316503
114011401,0.653111,0.307014
114611461,0.657799,0.297437
115211521,0.662522,0.28771
115811581,0.666933,0.277782
116411641,0.67115,0.268027
117011701,0.67533,0.257948
117611761,0.679186,0.248113
118211821,0.682853,0.238285
118811881,0.686737,0.228097
119411941,0.690097,0.218125
120012001,0.69341,0.207876
120612061,0.696676,0.197496
121212121,0.699651,0.187187
121812181,0.702489,0.176864
122412241,0.705269,0.166188
123012301,0.707606,0.155834
123612361,0.710122,0.145223
124212421,0.71233,0.134381
124812481,0.714361,0.124153
125412541,0.716308,0.113362
126012601,0.718167,0.10248
126612661,0.719728,0.0916881
127212721,0.721124,0.0811673
127812781,0.722462,0.070445
128412841,0.723444,0.0593176
129012901,0.72448,0.0484871
129612961,0.725151,0.037605
130213021,0.725654,0.0268389
130813081,0.726173,0.0159271
131413141,0.726342,0.00518087
132013201,0.726531,-0.00567767
132613261,0.726347,-0.0163297
133213321,0.726046,-0.0273246
133813381,0.725639,-0.0382411
134413441,0.725089,-0.0488327
135013501,0.724339,-0.0598626
135613561,0.723341,-0.0706975
136213621,0.722146,-0.0814391
136813681,0.720933,-0.0922092
137413741,0.719624,-0.102912
138013801,0.718095,-0.113399
138613861,0.716282,-0.123967
139213921,0.714366,-0.134834
139813981,0.712413,-0.145447
140414041,0.710148,-0.156245
141014101,0.707771,-0.166979
141614161,0.705079,-0.177584
142214221,0.702391,-0.188019
142814281,0.699435,-0.198527
143414341,0.696275,-0.2091
144014401,0.693114,-0.219437
144614461,0.689865,-0.229681
145214521,0.6862,-0.239543
145814581,0.682672,-0.249891
146414641,0.678832,-0.260054
147014701,0.67489,-0.270169
147614761,0.670731,-0.280357
148214821,0.666467,-0.290334
148814881,0.662063,-0.300172
149414941,0.657469,-0.310009
150015001,0.65269,-0.319831
150615061,0.647783,-0.329789
151215121,0.642921,-0.339216
151815181,0.637741,-0.348773
152415241,0.632418,-0.358061
153015301,0.626982,-0.367369
153615361,0.621534,-0.376495
154215421,0.615894,-0.385435
154815481,0.609942,-0.394779
155415541,0.60393,-0.4037
156015601,0.597854,-0.41252
156615661,0.591446,-0.42146
157215721,0.585079,-0.430115
157815781,0.578525,-0.438604
158415841,0.571975,-0.44707
159015901,0.565248,-0.45536
159615961,0.55852,-0.463413
160216021,0.551498,-0.471406
160816081,0.544334,-0.479498
161416141,0.537175,-0.487347
162016201,0.529702,-0.495181
162616261,0.522212,-0.502913
163216321,0.514656,-0.510404
163816381,0.506928,-0.518098
164416441,0.499336,-0.525054
165016501,0.491541,-0.531975
165616561,0.483278,-0.539304
166216621,0.47498,-0.546583
166816681,0.466865,-0.553301
167416741,0.458743,-0.559954
168016801,0.450521,-0.566488
168616861,0.441928,-0.572968
169216921,0.433305,-0.579353
169816981,0.424648,-0.585532
170417041,0.415695,-0.591708
171017101,0.40694,-0.597536
171617161,0.398143,-0.60336
172217221,0.389288,-0.608989
172817281,0.380183,-0.614532
173417341,0.371035,-0.61999
174017401,0.361604,-0.625307
174617461,0.352311,-0.630442
175217521,0.343322,-0.635427
175817581,0.333833,-0.640218
176417641,0.324464,-0.644979
177017701,0.314997,-0.649672
177617761,0.305386,-0.654083
178217821,0.295792,-0.658389
178817881,0.286188,-0.662505
179417941,0.276091,-0.666703
180018001,0.266222,-0.670697
180618061,0.25635,-0.6743
181218121,0.246374,-0.678039
181818181,0.236289,-0.681525
182418241,0.226299,-0.684842
183018301,0.216321,-0.688027
183618361,0.205996,-0.691096
184218421,0.195654,-0.694087
184818481,0.18545,-0.696707
185418541,0.175021,-0.699395
186018601,0.164734,-0.701744
186618661,0.154396,-0.704178
187218721,0.143925,-0.706185
187818781,0.133608,-0.708263
188418841,0.123215,-0.710061
189018901,0.112631,-0.711718
189618961,0.102304,-0.713258
190219021,0.0914376,-0.714708
190819081,0.0808167,-0.715972
191419141,0.0700378,-0.716999
192019201,0.0591251,-0.717995
192619261,0.0485514,-0.718747
193219321,0.0377955,-0.719402
193819381,0.0271066,-0.719807
194419441,0.016579,-0.720101
195019501,0.00583801,-0.720272
195619561,-0.00506153,-0.720297
196219621,-0.0156457,-0.720062
196819681,-0.0262351,-0.719709
197419741,-0.0371043,-0.719248
198019801,-0.0479505,-0.718606
198619861,-0.0584499,-0.717732
199219921,-0.0692149,-0.716757
199819981,-0.0795093,-0.715664
200420042,-0.0903434,-0.714311
201020102,-0.100971,-0.712716
201620162,-0.111681,-0.711194
202220222,-0.122293,-0.709338
202820282,-0.133103,-0.707384
203420342,-0.143789,-0.705298
204020402,-0.154052,-0.703024
204620462,-0.164355,-0.70059
205220522,-0.174918,-0.697961
205820582,-0.185543,-0.695106
206420642,-0.195824,-0.692058
207020702,-0.206252,-0.689082
207620762,-0.216512,-0.685914
208220822,-0.227112,-0.682371
208820882,-0.237265,-0.678596
209420942,-0.24715,-0.675114
210021002,-0.257113,-0.671359
210621062,-0.266993,-0.667427
211221122,-0.276972,-0.663176
211821182,-0.286633,-0.658909
212421242,-0.296471,-0.654442
213021302,-0.306128,-0.649883
213621362,-0.315907,-0.645025
214221422,-0.325439,-0.64016
214821482,-0.335023,-0.634986
215421542,-0.344482,-0.629621
216021602,-0.353939,-0.624358
216621662,-0.363028,-0.618883
217221722,-0.372043,-0.613146
217821782,-0.381091,-0.607418
218421842,-0.390139,-0.60153
219021902,-0.399011,-0.595214
219621962,-0.407898,-0.589104
220222022,-0.416496,-0.582679
220822082,-0.42506,-0.576371
221422142,-0.433341,-0.569788
222022202,-0.441987,-0.562854
222622262,-0.450114,-0.555998
223222322,-0.458244,-0.548869
223822382,-0.466339,-0.541726
224422442,-0.474306,-0.534594
225022502,-0.481875,-0.527358
225622562,-0.489666,-0.519721
226222622,-0.497231,-0.512083
226822682,-0.504604,-0.504312
227422742,-0.511976,-0.496572
228022802,-0.518975,-0.488323
228622862,-0.525949,-0.480447
229222922,-0.53303,-0.472095
229822982,-0.539723,-0.463958
230423042,-0.546438,-0.455583
231023102,-0.552981,-0.447003
231623162,-0.559115,-0.438568
232223222,-0.565324,-0.429951
232823282,-0.571225,-0.421333
233423342,-0.577177,-0.412504
234023402,-0.583041,-0.403432
234623462,-0.588638,-0.394391
235223522,-0.594264,-0.38514
235823582,-0.599421,-0.376153
236423642,-0.604689,-0.366758
237023702,-0.609732,-0.357415
237623762,-0.614526,-0.348095
238223822,-0.619176,-0.338624
238823882,-0.623644,-0.329173
239423942,-0.628063,-0.319611
240024002,-0.632332,-0.310082
240624062,-0.636354,-0.300266
241224122,-0.640082,-0.290804
241824182,-0.644109,-0.280788
242424242,-0.647631,-0.271126
243024302,-0.651034,-0.261131
243624362,-0.65423,-0.251583
244224422,-0.657369,-0.241228
244824482,-0.660457,-0.231268
245424542,-0.663274,-0.22123
246024602,-0.665875,-0.211365
246624662,-0.668352,-0.201324
247224722,-0.670609,-0.191128
247824782,-0.672716,-0.181104
248424842,-0.674843,-0.170612
249024902,-0.676651,-0.160752
249624962,-0.67835,-0.150439
250225022,-0.679876,-0.140021
250825082,-0.681197,-0.129701
251425142,-0.682434,-0.119551
252025202,-0.683445,-0.109585
252625262,-0.684336,-0.0994874
253225322,-0.685049,-0.0891578
253825382,-0.685606,-0.0790507
254425442,-0.686015,-0.0686699
255025502,-0.686156,-0.0586059
255625562,-0.686325,-0.0484486
256225622,-0.68639,-0.0383746
256825682,-0.686092,-0.0282204
257425742,-0.685739,-0.0180566
258025802,-0.685203,-0.00817911
258625862,-0.684582,0.00190798
259225922,-0.683745,0.0118016
259825982,-0.682682,0.0219504
260426042,-0.681697,0.0317697
261026102,-0.680446,0.0418765
261626162,-0.679026,0.0517044
262226222,-0.677606,0.0614551
262826282,-0.675923,0.071096
263426342,-0.674034,0.0809176
264026402,-0.67212,0.090547
264626462,-0.670049,0.0999867
265226522,-0.667914,0.109687
265826582,-0.665542,0.11896
266426642,-0.662969,0.128534
267026702,-0.660385,0.13796
267626762,-0.65765,0.147233
268226822,-0.654791,0.156752
268826882,-0.651831,0.16567
269426942,-0.648807,0.174607
270027002,-0.645469,0.183629
270627062,-0.642143,0.192654
271227122,-0.638622,0.20183
271827182,-0.635121,0.210571
272427242,-0.631308,0.219363
273027302,-0.627513,0.228117
273627362,-0.62355,0.236608
274227422,-0.619549,0.245174
274827482,-0.615312,0.253732
275427542,-0.611107,0.262068
276027602,-0.606769,0.270332
276627662,-0.602225,0.27897
277227722,-0.597505,0.286965
277827782,-0.593017,0.295024
278427842,-0.588315,0.302885
279027902,-0.583434,0.310859
279627962,-0.578349,0.31867
280228022,-0.573353,0.326483
280828082,-0.568073,0.334354
281428142,-0.562915,0.341736
282028202,-0.557504,0.349305
282628262,-0.552186,0.356725
283228322,-0.546729,0.363948
283828382,-0.541129,0.371053
284428442,-0.535471,0.378193
285028502,-0.529658,0.385265
285628562,-0.523808,0.392356
286228622,-0.517854,0.399325
286828682,-0.511673,0.406282
287428742,-0.505841,0.412667
288028802,-0.499599,0.41935
288628862,-0.493488,0.425817
289228922,-0.487002,0.432285
289828982,-0.480742,0.43864
290429042,-0.474253,0.444817
291029102,-0.467702,0.450907
291629162,-0.461259,0.457018
292229222,-0.454706,0.462937
292829282,-0.447799,0.46873
293429342,-0.441168,0.474381
294029402,-0.434306,0.48005
294629462,-0.427382,0.485753
295229522,-0.420436,0.491213
295829582,-0.413429,0.496665
296429642,-0.406357,0.502028
297029702,-0.399166,0.50711
297629762,-0.391903,0.512278
298229822,-0.384753,0.517283
298829882,-0.377442,0.52221
299429942,-0.370071,0.527007
300030003,-0.36273,0.531476
300630063,-0.355277,0.536289
301230123,-0.347578,0.540716
301830183,-0.340263,0.545121
302430243,-0.332792,0.549452
303030303,-0.325119,0.553611
303630363,-0.317551,0.557811
304230423,-0.309598,0.56195
304830483,-0.301921,0.565881
305430543,-0.294134,0.569701
306030603,-0.286376,0.573418
306630663,-0.278584,0.577031
307230723,-0.270592,0.580524
307830783,-0.26279,0.583842
308430843,-0.254664,0.587193
309030903,-0.246916,0.590404
309630963,-0.238807,0.593595
310231023,-0.230807,0.596505
310831083,-0.222757,0.599469
311431143,-0.21478,0.602243
312031203,-0.206604,0.604947
312631263,-0.198369,0.607662
313231323,-0.18897,0.610704
313831383,-0.180846,0.613035
314431443,-0.172486,0.615371
315031503,-0.164108,0.617629
315631563,-0.155939,0.619633
316231623,-0.147582,0.621578
316831683,-0.139128,0.623564
317431743,-0.130794,0.625363
318031803,-0.122515,0.627016
318631863,-0.114025,0.628617
319231923,-0.105779,0.630156
319831983,-0.0973168,0.631414
320432043,-0.0888518,0.632816
321032103,-0.0804003,0.634047
321632163,-0.0719962,0.63508
322232223,-0.0634192,0.636001
322832283,-0.0549361,0.63682
323432343,-0.0464556,0.637459
324032403,-0.0378163,0.638328
324632463,-0.0295621,0.638859
325232523,-0.0211897,0.639334
325832583,-0.0123125,0.639834
326432643,-0.00384577,0.640119
327032703,0.00487733,0.640198
327632763,0.0135021,0.640282
328232823,0.0220626,0.640186
328832883,0.0309289,0.640058
329432943,0.0393099,0.639802
330033003,0.0481763,0.639423
330633063,0.0569513,0.638806
331233123,0.0655777,0.638262
331833183,0.0742767,0.637465
332433243,0.0828507,0.636745
333033303,0.0915942,0.635846
333633363,0.100122,0.634779
334233423,0.109002,0.63366
334833483,0.117663,0.632361
335433543,0.126386,0.630984
336033603,0.13511,0.629557
336633663,0.143714,0.627803
337233723,0.152425,0.626151
337833783,0.161006,0.624328
338433843,0.169538,0.622359
339033903,0.178205,0.620358
339633963,0.186744,0.618182
340234023,0.195292,0.615926
340834083,0.203775,0.613475
341434143,0.212101,0.610996
342034203,0.220688,0.608482
342634263,0.229193,0.60565
343234323,0.237509,0.602894
343834383,0.245813,0.599904
344434443,0.254097,0.596885
345034503,0.262783,0.593646
345634563,0.271124,0.590257
346234623,0.279668,0.586791
346834683,0.287877,0.583156
347434743,0.296074,0.579506
348034803,0.30434,0.575603
348634863,0.312595,0.57176
349234923,0.320676,0.567796
349834983,0.328825,0.56359
350435043,0.336865,0.559258
351035103,0.344952,0.554712
351635163,0.35314,0.550039
352235223,0.3612,0.545484
352835283,0.369211,0.540571
353435343,0.376903,0.535666
354035403,0.384797,0.530629
354635463,0.392329,0.525771
355235523,0.400246,0.52039
355835583,0.407736,0.515073
356435643,0.415384,0.509499
357035703,0.422894,0.503938
357635763,0.430205,0.498227
358235823,0.437697,0.492361
358835883,0.44496,0.486506
359435943,0.451788,0.480751
360036003,0.459133,0.474341
360636063,0.466126,0.468268
361236123,0.473269,0.461775
361836183,0.480048,0.455237
362436243,0.486946,0.448691
363036303,0.493632,0.442015
363636363,0.500235,0.435139
364236423,0.506791,0.4284
364836483,0.513279,0.421352
365436543,0.519875,0.414059
366036603,0.52607,0.407013
366636663,0.532356,0.39962
367236723,0.538413,0.392311
367836783,0.5446,0.384655
368436843,0.550468,0.377031
369036903,0.55633,0.369339
369636963,0.562099,0.361307
370237023,0.567738,0.353377
370837083,0.573125,0.345291
371437143,0.578512,0.337229
372037203,0.58368,0.32916
372637263,0.588883,0.32092
373237323,0.594031,0.312184
373837383,0.599007,0.303497
374437443,0.603625,0.294987
375037503,0.608302,0.286736
375637563,0.61277,0.278111
376237623,0.617097,0.269266
376837683,0.621552,0.26052
377437743,0.625705,0.251502
378037803,0.629755,0.242449
378637863,0.633464,0.233492
379237923,0.637335,0.224428
379837983,0.641027,0.215106
380438043,0.644564,0.20566
381038103,0.647878,0.196457
381638163,0.651144,0.186986
382238223,0.654262,0.177617
382838283,0.657015,0.167968
383438343,0.659936,0.158344
384038403,0.662638,0.148834
384638463,0.665072,0.139402
385238523,0.667565,0.1294
385838583,0.669784,0.119561
386438643,0.671817,0.109681
387038703,0.673779,0.0997312
387638763,0.675511,0.0897573
388238823,0.677017,0.0798897
388838883,0.678578,0.0698674
389438943,0.67987,0.0597472
390039003,0.68112,0.0497745
390639063,0.682132,0.0396581
391239123,0.682996,0.0297234
391839183,0.683742,0.0194865
392439243,0.684299,0.009356
393039303,0.684635,-0.000677956
393639363,0.684214,-0.0117649
394239423,0.675372,-0.0293689
394839483,0.677477,-0.0364349
395439543,0.67734,-0.0466105
396039603,0.677581,-0.0562553
396639663,0.677033,-0.0662101
397239723,0.676313,-0.0762225
397839783,0.675516,-0.086335
398439843,0.674369,-0.0963798
399039903,0.672143,-0.107356
399639963,0.670061,-0.118183
400240024,0.668442,-0.128432
400840084,0.666277,-0.138838
401440144,0.66368,-0.149474
402040204,0.66124,-0.159278
402640264,0.658276,-0.169283
403240324,0.654131,-0.179252
403840384,0.652044,-0.189094
404440444,0.648679,-0.198911
