Frequency (Hz),S12 Real,S12 Imaginary
0,0.188745,-0.70314
600060,-0.653073,-0.139349
1200120,-0.678393,-0.104285
1800180,-0.696237,-0.0914835
2400240,-0.713806,-0.0792052
3000300,-0.728289,-0.0651386
3600360,-0.740908,-0.048767
4200420,-0.750986,-0.0312386
4800480,-0.758303,-0.012783
5400540,-0.763357,0.00609921
6000600,-0.766411,0.0248542
6600660,-0.767683,0.0429127
7200720,-0.767504,0.0605804
7800780,-0.766295,0.0774995
8400840,-0.764223,0.0939287
9000900,-0.761578,0.109701
9600960,-0.758273,0.125204
10201020,-0.754381,0.139643
10801080,-0.750072,0.153925
11401140,-0.745633,0.167417
12001200,-0.74115,0.180637
12601260,-0.736437,0.193667
13201320,-0.731533,0.206185
13801380,-0.72649,0.218556
14401440,-0.721091,0.230724
15001500,-0.715819,0.242417
15601560,-0.710028,0.254058
16201620,-0.704263,0.265442
16801680,-0.698351,0.276261
17401740,-0.692363,0.287159
18001800,-0.686438,0.297601
18601860,-0.680614,0.307518
19201920,-0.674413,0.317609
19801980,-0.668375,0.32757
20402040,-0.662191,0.33718
21002100,-0.655896,0.346831
21602160,-0.649646,0.356211
22202220,-0.643246,0.365465
22802280,-0.636781,0.374638
23402340,-0.630123,0.383745
24002400,-0.623358,0.392709
24602460,-0.616554,0.401472
25202520,-0.61373,0.407322
25802580,-0.606651,0.415745
26402640,-0.599409,0.423967
27002700,-0.592171,0.432072
27602760,-0.584571,0.440407
28202820,-0.577014,0.448591
28802880,-0.5692,0.456757
29402940,-0.561185,0.465065
30003000,-0.553249,0.473075
30603060,-0.544867,0.479925
31203120,-0.536522,0.487872
31803180,-0.528726,0.495718
32403240,-0.52094,0.502505
33003300,-0.513486,0.508867
33603360,-0.505895,0.515439
34203420,-0.498146,0.521847
34803480,-0.490522,0.528074
35403540,-0.482563,0.534237
36003600,-0.474548,0.540857
36603660,-0.466718,0.547095
37203720,-0.458368,0.553432
37803780,-0.450303,0.55958
38403840,-0.442085,0.565657
39003900,-0.433642,0.571666
39603960,-0.425439,0.577432
40204020,-0.416826,0.583009
40804080,-0.40851,0.58838
41404140,-0.399671,0.593661
42004200,-0.390997,0.598953
42604260,-0.381878,0.604061
43204320,-0.373102,0.60903
43804380,-0.364142,0.613724
44404440,-0.35506,0.618338
45004500,-0.345818,0.622996
45604560,-0.336641,0.62736
46204620,-0.327214,0.631758
46804680,-0.318057,0.635801
47404740,-0.308902,0.639702
48004800,-0.299636,0.643487
48604860,-0.290213,0.647207
49204920,-0.280652,0.650916
49804980,-0.2712,0.654416
50405040,-0.26166,0.657928
51005100,-0.252204,0.661143
51605160,-0.242718,0.664297
52205220,-0.233111,0.667312
52805280,-0.223732,0.670214
53405340,-0.214394,0.672981
54005400,-0.20501,0.675648
54605460,-0.195469,0.67825
55205520,-0.185825,0.680681
55805580,-0.176454,0.683063
56405640,-0.167077,0.685337
57005700,-0.157597,0.68734
57605760,-0.147967,0.689327
58205820,-0.13845,0.691182
58805880,-0.12901,0.692804
59405940,-0.119568,0.694214
60006000,-0.109651,0.695315
60606060,-0.0992156,0.696136
61206120,-0.0885153,0.696552
61806180,-0.0768278,0.696847
62406240,-0.0661096,0.697791
63006300,-0.0560093,0.699039
63606360,-0.0464654,0.700213
64206420,-0.0369067,0.700839
64806480,-0.0272723,0.701336
65406540,-0.0171344,0.701633
66006600,-0.00730688,0.701636
66606660,0.00271529,0.701412
67206720,0.0125446,0.701258
67806780,0.0222482,0.700871
68406840,0.0323713,0.700434
69006900,0.0420862,0.699746
69606960,0.0519064,0.698995
70207020,0.0616204,0.698171
70807080,0.0714667,0.6971
71407140,0.0815334,0.696063
72007200,0.0910451,0.694856
72607260,0.100607,0.693437
73207320,0.110573,0.692024
73807380,0.120329,0.690422
74407440,0.130072,0.688708
75007500,0.139897,0.686784
75607560,0.149636,0.684869
76207620,0.159267,0.682743
76807680,0.168922,0.680471
77407740,0.178706,0.678109
78007800,0.188391,0.675682
78607860,0.197846,0.67301
79207920,0.207421,0.670249
79807980,0.217081,0.667374
80408040,0.226406,0.664375
81008100,0.235616,0.661384
81608160,0.245202,0.658065
82208220,0.254659,0.654608
82808280,0.263929,0.651125
83408340,0.273029,0.647488
84008400,0.282749,0.643504
84608460,0.291936,0.639676
85208520,0.300945,0.635728
85808580,0.309772,0.631637
86408640,0.318985,0.627242
87008700,0.327911,0.622927
87608760,0.337026,0.618336
88208820,0.345783,0.613715
88808880,0.35475,0.608886
89408940,0.363422,0.604015
90009000,0.372389,0.598849
90609060,0.381039,0.593714
91209120,0.389491,0.588467
91809180,0.398105,0.582973
92409240,0.406611,0.577331
93009300,0.415042,0.571604
93609360,0.423388,0.565867
94209420,0.431916,0.559854
94809480,0.440133,0.553773
95409540,0.44824,0.547437
96009600,0.456182,0.541301
96609660,0.464105,0.53494
97209720,0.472154,0.528301
97809780,0.479932,0.521582
98409840,0.487527,0.514736
99009900,0.495127,0.507789
99609960,0.502746,0.500613
100210021,0.510337,0.49356
100810081,0.517565,0.486206
101410141,0.524843,0.478911
102010201,0.532055,0.471273
102610261,0.539123,0.463504
103210321,0.545983,0.455888
103810381,0.552775,0.44795
104410441,0.559444,0.439873
105010501,0.566214,0.43192
105610561,0.572489,0.423914
106210621,0.579116,0.415374
106810681,0.585272,0.407046
107410741,0.591565,0.398551
108010801,0.597509,0.389811
108610861,0.603429,0.381212
109210921,0.609094,0.372372
109810981,0.614743,0.363581
110411041,0.620287,0.354542
111011101,0.625658,0.345299
111611161,0.630943,0.336183
112211221,0.635924,0.327002
112811281,0.640936,0.317779
113411341,0.64593,0.308137
114011401,0.650653,0.298533
114611461,0.65518,0.28902
115211521,0.659616,0.279326
115811581,0.663886,0.269516
116411641,0.667966,0.259624
117011701,0.671918,0.249749
117611761,0.675564,0.239886
118211821,0.679271,0.230029
118811881,0.682838,0.220027
119411941,0.686329,0.209837
120012001,0.689542,0.199535
120612061,0.692554,0.189462
121212121,0.695371,0.179164
121812181,0.698229,0.168631
122412241,0.700602,0.158468
123012301,0.702954,0.148197
123612361,0.705207,0.137569
124212421,0.707276,0.126643
124812481,0.709372,0.116183
125412541,0.711113,0.105744
126012601,0.712744,0.0947812
126612661,0.714194,0.084261
127212721,0.715466,0.0735479
127812781,0.716625,0.0630405
128412841,0.717616,0.052197
129012901,0.718264,0.0415323
129612961,0.719021,0.0304443
130213021,0.719441,0.0196513
130813081,0.719712,0.00878142
131413141,0.719799,-0.00163771
132013201,0.71975,-0.0124007
132613261,0.719525,-0.0229512
133213321,0.719028,-0.0339323
133813381,0.718481,-0.0446345
134413441,0.717866,-0.0552918
135013501,0.716951,-0.0660241
135613561,0.715936,-0.0766056
136213621,0.714676,-0.0872255
136813681,0.71341,-0.0980104
137413741,0.711862,-0.108927
138013801,0.710155,-0.119556
138613861,0.708295,-0.130113
139213921,0.706402,-0.140488
139813981,0.704179,-0.150982
140414041,0.70181,-0.161484
141014101,0.699317,-0.172094
141614161,0.69669,-0.182415
142214221,0.693877,-0.193071
142814281,0.690864,-0.203317
143414341,0.687786,-0.213554
144014401,0.684424,-0.223945
144614461,0.680821,-0.234144
145214521,0.677236,-0.244617
145814581,0.673649,-0.254237
146414641,0.669679,-0.26431
147014701,0.665659,-0.274285
147614761,0.661408,-0.284198
148214821,0.657112,-0.294023
148814881,0.652761,-0.303759
149414941,0.648028,-0.313607
150015001,0.643251,-0.323147
150615061,0.638365,-0.332677
151215121,0.633136,-0.342252
151815181,0.628117,-0.351437
152415241,0.622688,-0.360593
153015301,0.617322,-0.369764
153615361,0.611779,-0.378917
154215421,0.605997,-0.387935
154815481,0.60012,-0.396509
155415541,0.59413,-0.40537
156015601,0.587907,-0.414052
156615661,0.581667,-0.422606
157215721,0.575374,-0.430948
157815781,0.568737,-0.439431
158415841,0.562166,-0.447635
159015901,0.555193,-0.455781
159615961,0.548529,-0.463669
160216021,0.541536,-0.471636
160816081,0.534542,-0.479488
161416141,0.527114,-0.487312
162016201,0.519855,-0.494738
162616261,0.512278,-0.502398
163216321,0.504729,-0.509795
163816381,0.496853,-0.517126
164416441,0.489182,-0.524199
165016501,0.481115,-0.531466
165616561,0.47325,-0.538204
166216621,0.465123,-0.544965
166816681,0.456904,-0.551798
167416741,0.448588,-0.55824
168016801,0.440361,-0.564571
168616861,0.432046,-0.570764
169216921,0.423484,-0.577081
169816981,0.414913,-0.583101
170417041,0.406227,-0.588916
171017101,0.397428,-0.594662
171617161,0.388372,-0.600549
172217221,0.379565,-0.605944
172817281,0.3706,-0.611353
173417341,0.361354,-0.616696
174017401,0.352418,-0.621699
174617461,0.34296,-0.626891
175217521,0.333794,-0.631777
175817581,0.324367,-0.636483
176417641,0.314846,-0.641063
177017701,0.305625,-0.645534
177617761,0.296032,-0.64976
178217821,0.28641,-0.653996
178817881,0.276765,-0.658113
179417941,0.266889,-0.661998
180018001,0.257391,-0.665704
180618061,0.247446,-0.669427
181218121,0.237452,-0.672983
181818181,0.227523,-0.676242
182418241,0.217523,-0.679459
183018301,0.207767,-0.682463
183618361,0.197536,-0.685393
184218421,0.187299,-0.688109
184818481,0.177219,-0.690749
185418541,0.166841,-0.693294
186018601,0.156794,-0.695571
186618661,0.146608,-0.697565
187218721,0.136164,-0.699726
187818781,0.125641,-0.701711
188418841,0.115273,-0.703433
189018901,0.105062,-0.705105
189618961,0.0944393,-0.706428
190219021,0.0835039,-0.707806
190819081,0.0730879,-0.708813
191419141,0.0623785,-0.709862
192019201,0.0520012,-0.71066
192619261,0.041336,-0.71129
193219321,0.0308884,-0.711741
193819381,0.0202269,-0.712081
194419441,0.00954906,-0.71232
195019501,-0.00119281,-0.712238
195619561,-0.0116971,-0.712131
196219621,-0.0222368,-0.711832
196819681,-0.0327308,-0.711478
197419741,-0.0433089,-0.710869
198019801,-0.0538744,-0.710137
198619861,-0.0644528,-0.709107
199219921,-0.0750346,-0.708075
199819981,-0.0857161,-0.706811
200420042,-0.0961002,-0.705485
201020102,-0.106566,-0.703897
201620162,-0.116951,-0.702126
202220222,-0.127319,-0.700279
202820282,-0.13796,-0.698124
203420342,-0.148506,-0.695998
204020402,-0.158893,-0.693669
204620462,-0.169221,-0.691152
205220522,-0.179649,-0.688438
205820582,-0.189755,-0.685573
206420642,-0.20012,-0.68262
207020702,-0.210135,-0.679453
207620762,-0.220463,-0.676126
208220822,-0.2307,-0.672677
208820882,-0.240634,-0.668831
209420942,-0.250599,-0.665246
210021002,-0.260399,-0.661409
210621062,-0.270138,-0.657287
211221122,-0.279843,-0.653017
211821182,-0.289481,-0.648774
212421242,-0.299238,-0.644148
213021302,-0.308776,-0.63945
213621362,-0.318249,-0.634675
214221422,-0.32769,-0.629715
214821482,-0.337172,-0.62463
215421542,-0.346272,-0.619291
216021602,-0.355265,-0.61404
216621662,-0.36439,-0.608465
217221722,-0.373529,-0.602594
217821782,-0.382726,-0.596642
218421842,-0.391213,-0.59079
219021902,-0.400075,-0.58471
219621962,-0.408775,-0.578349
220222022,-0.417263,-0.572033
220822082,-0.425763,-0.565505
221422142,-0.433943,-0.558976
222022202,-0.442268,-0.551984
222622262,-0.450325,-0.545177
223222322,-0.458302,-0.538092
223822382,-0.466127,-0.530984
224422442,-0.473788,-0.523816
225022502,-0.481507,-0.516266
225622562,-0.489075,-0.508658
226222622,-0.496426,-0.501112
226822682,-0.503524,-0.493478
227422742,-0.510503,-0.485723
228022802,-0.517624,-0.477782
228622862,-0.524566,-0.469571
229222922,-0.531249,-0.461351
229822982,-0.537738,-0.453156
230423042,-0.543982,-0.4451
231023102,-0.550299,-0.436658
231623162,-0.556533,-0.428136
232223222,-0.562689,-0.419349
232823282,-0.568542,-0.410657
233423342,-0.574179,-0.402023
234023402,-0.579719,-0.393025
234623462,-0.58549,-0.383977
235223522,-0.590844,-0.374867
235823582,-0.595829,-0.365883
236423642,-0.600751,-0.356897
237023702,-0.605643,-0.347642
237623762,-0.610348,-0.338279
238223822,-0.615044,-0.328735
238823882,-0.61942,-0.319326
239423942,-0.623437,-0.309915
240024002,-0.627618,-0.300376
240624062,-0.631544,-0.290636
241224122,-0.635313,-0.281165
241824182,-0.638957,-0.271521
242424242,-0.642504,-0.261736
243024302,-0.645735,-0.251962
243624362,-0.648849,-0.242132
244224422,-0.651803,-0.232557
244824482,-0.65478,-0.222481
245424542,-0.657488,-0.212352
246024602,-0.659929,-0.202571
246624662,-0.662209,-0.192696
247224722,-0.664478,-0.182564
247824782,-0.666516,-0.172605
248424842,-0.668331,-0.162481
249024902,-0.670048,-0.152317
249624962,-0.671588,-0.142301
250225022,-0.673113,-0.132131
250825082,-0.674213,-0.121871
251425142,-0.675369,-0.112068
252025202,-0.676363,-0.101719
252625262,-0.677159,-0.0915803
253225322,-0.677779,-0.0814425
253825382,-0.67825,-0.0714298
254425442,-0.678638,-0.0612203
255025502,-0.678708,-0.0513592
255625562,-0.678672,-0.0414807
256225622,-0.678616,-0.0310311
256825682,-0.678246,-0.0212748
257425742,-0.677765,-0.0113314
258025802,-0.677253,-0.00141342
258625862,-0.676433,0.00860069
259225922,-0.675605,0.0185579
259825982,-0.674514,0.0284481
260426042,-0.673379,0.0383716
261026102,-0.671988,0.0478051
261626162,-0.670686,0.057496
262226222,-0.669019,0.0672723
262826282,-0.667239,0.0767675
263426342,-0.665379,0.0861813
264026402,-0.663292,0.0958742
264626462,-0.661068,0.105403
265226522,-0.659015,0.11462
265826582,-0.656591,0.124003
266426642,-0.654013,0.133272
267026702,-0.651187,0.142437
267626762,-0.648635,0.151522
268226822,-0.64568,0.161016
268826882,-0.64265,0.169891
269426942,-0.639407,0.178923
270027002,-0.636052,0.188085
270627062,-0.632705,0.196866
271227122,-0.62917,0.205663
271827182,-0.625639,0.214328
272427242,-0.621894,0.222823
273027302,-0.617975,0.231502
273627362,-0.614022,0.239962
274227422,-0.609936,0.24823
274827482,-0.605699,0.256555
275427542,-0.601459,0.26499
276027602,-0.597074,0.272946
276627662,-0.592589,0.281362
277227722,-0.588029,0.289355
277827782,-0.583287,0.297264
278427842,-0.578394,0.305224
279027902,-0.573479,0.312841
279627962,-0.568536,0.320716
280228022,-0.563431,0.328243
280828082,-0.558361,0.335948
281428142,-0.552999,0.343431
282028202,-0.547689,0.350703
282628262,-0.542179,0.358061
283228322,-0.536704,0.365149
283828382,-0.531189,0.372248
284428442,-0.525354,0.379415
285028502,-0.519563,0.386279
285628562,-0.51371,0.393124
286228622,-0.507864,0.399842
286828682,-0.501827,0.406429
287428742,-0.495842,0.412898
288028802,-0.489555,0.419512
288628862,-0.48338,0.425951
289228922,-0.477179,0.432175
289828982,-0.47072,0.438436
290429042,-0.464181,0.444621
291029102,-0.457746,0.450539
291629162,-0.451158,0.456308
292229222,-0.444614,0.462207
292829282,-0.437986,0.467819
293429342,-0.431232,0.473458
294029402,-0.424316,0.479045
294629462,-0.417386,0.484497
295229522,-0.410435,0.489939
295829582,-0.403513,0.49519
296429642,-0.396348,0.500352
297029702,-0.389147,0.505492
297629762,-0.382018,0.510272
298229822,-0.374701,0.515339
298829882,-0.367557,0.520133
299429942,-0.360208,0.524765
300030003,-0.353038,0.529195
300630063,-0.345356,0.533839
301230123,-0.338045,0.538187
301830183,-0.330419,0.542564
302430243,-0.322997,0.546731
303030303,-0.315355,0.550787
303630363,-0.308009,0.554677
304230423,-0.300029,0.558608
304830483,-0.292461,0.562241
305430543,-0.284714,0.566114
306030603,-0.276896,0.569752
306630663,-0.269275,0.573076
307230723,-0.261484,0.576459
307830783,-0.253506,0.579863
308430843,-0.245655,0.582892
309030903,-0.237701,0.586166
309630963,-0.229799,0.58901
310231023,-0.221741,0.591998
310831083,-0.213533,0.594903
311431143,-0.205742,0.597521
312031203,-0.197336,0.600117
312631263,-0.189349,0.602517
313231323,-0.180366,0.605357
313831383,-0.172058,0.607605
314431443,-0.163735,0.609893
315031503,-0.15545,0.611984
315631563,-0.146965,0.614117
316231623,-0.138774,0.615861
316831683,-0.130348,0.617721
317431743,-0.122324,0.619402
318031803,-0.113781,0.620947
318631863,-0.105414,0.622325
319231923,-0.0969421,0.623745
319831983,-0.0886887,0.625141
320432043,-0.0803755,0.62619
321032103,-0.0720179,0.627292
321632163,-0.0636976,0.628236
322232223,-0.0554367,0.629086
322832283,-0.0470961,0.629831
323432343,-0.0386611,0.63049
324032403,-0.0303029,0.631055
324632463,-0.0219701,0.63149
325232523,-0.0134445,0.631946
325832583,-0.00492452,0.632214
326432643,0.00372042,0.632363
327032703,0.0120568,0.632382
327632763,0.0206019,0.632157
328232823,0.0293121,0.632202
328832883,0.0377532,0.631868
329432943,0.0465029,0.631395
330033003,0.0549608,0.631068
330633063,0.063368,0.630397
331233123,0.0722398,0.629692
331833183,0.0806834,0.628938
332433243,0.0889917,0.627979
333033303,0.0977507,0.627005
333633363,0.106328,0.625894
334233423,0.114886,0.624605
334833483,0.123501,0.623159
335433543,0.131853,0.62184
336033603,0.140564,0.62019
336633663,0.148984,0.618544
337233723,0.157358,0.61669
337833783,0.166046,0.614879
338433843,0.174669,0.61286
339033903,0.182837,0.610597
339633963,0.19166,0.608323
340234023,0.199979,0.606034
340834083,0.208144,0.603582
341434143,0.21659,0.600955
342034203,0.224947,0.598221
342634263,0.233496,0.59544
343234323,0.241833,0.592536
343834383,0.24989,0.589511
344434443,0.258153,0.586289
345034503,0.266451,0.582964
345634563,0.274767,0.579606
346234623,0.283021,0.576107
346834683,0.291221,0.572333
347434743,0.299157,0.568571
348034803,0.307499,0.56474
348634863,0.315429,0.560707
349234923,0.323479,0.556594
349834983,0.331465,0.552388
350435043,0.339223,0.547981
351035103,0.34724,0.543547
351635163,0.355247,0.539025
352235223,0.363083,0.53424
352835283,0.370995,0.529349
353435343,0.378505,0.524548
354035403,0.386276,0.519338
354635463,0.393799,0.514249
355235523,0.401457,0.508834
355835583,0.408703,0.503625
356435643,0.416157,0.498003
357035703,0.423335,0.49241
357635763,0.430693,0.486781
358235823,0.437826,0.480908
358835883,0.445225,0.474753
359435943,0.452239,0.46866
360036003,0.459039,0.462534
360636063,0.465743,0.456493
361236123,0.472601,0.450097
361836183,0.479456,0.44356
362436243,0.486264,0.436956
363036303,0.492771,0.430166
363636363,0.499207,0.423328
364236423,0.50556,0.416512
364836483,0.511985,0.409395
365436543,0.518055,0.402413
366036603,0.52421,0.395227
366636663,0.530316,0.387684
367236723,0.536311,0.380405
367836783,0.542102,0.37295
368436843,0.547767,0.365396
369036903,0.553407,0.357777
369636963,0.558887,0.349882
370237023,0.564238,0.34185
370837083,0.569611,0.334017
371437143,0.574857,0.32594
372037203,0.580012,0.317607
372637263,0.585064,0.309272
373237323,0.589844,0.30097
373837383,0.59448,0.29273
374437443,0.599291,0.283959
375037503,0.603951,0.275273
375637563,0.60817,0.266906
376237623,0.612438,0.258117
376837683,0.616362,0.249435
377437743,0.620469,0.240616
378037803,0.624367,0.231584
378637863,0.628008,0.222553
379237923,0.63156,0.213726
379837983,0.635098,0.204307
380438043,0.638443,0.195252
381038103,0.641643,0.185889
381638163,0.644718,0.1766
382238223,0.647644,0.166958
382838283,0.650351,0.157752
383438343,0.653015,0.148212
384038403,0.655539,0.13865
384638463,0.657869,0.129259
385238523,0.660093,0.119444
385838583,0.662239,0.109868
386438643,0.664048,0.100012
387038703,0.665825,0.0902036
387638763,0.667216,0.0804326
388238823,0.668927,0.0707912
388838883,0.670227,0.0608328
389438943,0.67147,0.0509386
390039003,0.672445,0.040862
390639063,0.673345,0.0308499
391239123,0.674099,0.021089
391839183,0.674689,0.011004
392439243,0.675114,0.000673063
393039303,0.675166,-0.00904468
393639363,0.675468,-0.0192987
394239423,0.675513,-0.0293151
394839483,0.675198,-0.0392655
395439543,0.674861,-0.0493521
396039603,0.674379,-0.059466
396639663,0.673623,-0.0693239
397239723,0.672923,-0.0792589
397839783,0.671805,-0.0897469
398439843,0.670705,-0.0994424
399039903,0.669396,-0.109534
399639963,0.667957,-0.119802
400240024,0.666323,-0.129941
400840084,0.664569,-0.139693
401440144,0.662787,-0.149713
402040204,0.660594,-0.159734
402640264,0.65834,-0.169577
403240324,0.655939,-0.179318
403840384,0.653377,-0.18923
