Frequency (Hz),S12 Real,S12 Imaginary
0,0.18286,-0.704191
600060,-0.642643,-0.131863
1200120,-0.669957,-0.0982442
1800180,-0.689068,-0.0846462
2400240,-0.705462,-0.0717968
3000300,-0.719376,-0.0565139
3600360,-0.730845,-0.0402988
4200420,-0.739993,-0.0227109
4800480,-0.746581,-0.00480981
5400540,-0.751063,0.0132613
6000600,-0.753597,0.0312564
6600660,-0.754674,0.0486113
7200720,-0.754466,0.065815
7800780,-0.753114,0.0821565
8400840,-0.750943,0.0984408
9000900,-0.748186,0.113598
9600960,-0.744828,0.128337
10201020,-0.740957,0.142812
10801080,-0.736699,0.156225
11401140,-0.732524,0.169412
12001200,-0.727995,0.182351
12601260,-0.723341,0.194762
13201320,-0.718571,0.20733
13801380,-0.713443,0.21958
14401440,-0.708326,0.231155
15001500,-0.702885,0.242759
15601560,-0.697326,0.254007
16201620,-0.691503,0.265166
16801680,-0.685688,0.275801
17401740,-0.679892,0.286163
18001800,-0.673953,0.296502
18601860,-0.668154,0.306402
19201920,-0.662034,0.316423
19801980,-0.655957,0.326138
20402040,-0.649908,0.335552
21002100,-0.643584,0.345204
21602160,-0.637406,0.354413
22202220,-0.631077,0.363421
22802280,-0.624578,0.372537
23402340,-0.617978,0.381335
24002400,-0.611439,0.390009
24602460,-0.60467,0.398588
25202520,-0.602216,0.404349
25802580,-0.595073,0.412608
26402640,-0.587873,0.420744
27002700,-0.580507,0.428834
27602760,-0.573291,0.436515
28202820,-0.565656,0.444704
28802880,-0.557801,0.452892
29402940,-0.55013,0.460902
30003000,-0.542102,0.468628
30603060,-0.53386,0.475447
31203120,-0.525772,0.483018
31803180,-0.518354,0.490453
32403240,-0.510711,0.497214
33003300,-0.503517,0.503447
33603360,-0.495713,0.510109
34203420,-0.488221,0.516241
34803480,-0.480374,0.522573
35403540,-0.4726,0.528726
36003600,-0.464817,0.535034
36603660,-0.456992,0.541128
37203720,-0.449048,0.547127
37803780,-0.440987,0.553291
38403840,-0.432881,0.559125
39003900,-0.424658,0.564964
39603960,-0.416522,0.57054
40204020,-0.408165,0.576043
40804080,-0.399572,0.581486
41404140,-0.391028,0.586486
42004200,-0.38203,0.591706
42604260,-0.373196,0.596727
43204320,-0.364284,0.601557
43804380,-0.355428,0.606192
44404440,-0.346408,0.610775
45004500,-0.33727,0.615122
45604560,-0.328225,0.619354
46204620,-0.319363,0.623317
46804680,-0.310189,0.627345
47404740,-0.301312,0.631125
48004800,-0.291811,0.634908
48604860,-0.282635,0.638573
49204920,-0.273537,0.641918
49804980,-0.264203,0.645289
50405040,-0.254722,0.648692
51005100,-0.245254,0.65184
51605160,-0.236208,0.654814
52205220,-0.226789,0.657755
52805280,-0.21741,0.660517
53405340,-0.207887,0.66323
54005400,-0.198601,0.665839
54605460,-0.189415,0.668206
55205520,-0.180145,0.67057
55805580,-0.170662,0.672896
56405640,-0.161432,0.674987
57005700,-0.152318,0.676908
57605760,-0.142916,0.67888
58205820,-0.133559,0.680569
58805880,-0.12407,0.682184
59405940,-0.114586,0.6835
60006000,-0.105159,0.684657
60606060,-0.0948984,0.685488
61206120,-0.0841335,0.685979
61806180,-0.0731805,0.686241
62406240,-0.0631533,0.68699
63006300,-0.0533827,0.688305
63606360,-0.0438273,0.689351
64206420,-0.0341805,0.690034
64806480,-0.0246219,0.690415
65406540,-0.01524,0.690549
66006600,-0.0050302,0.690576
66606660,0.00485824,0.690452
67206720,0.0145376,0.690116
67806780,0.0238823,0.68972
68406840,0.0337147,0.689286
69006900,0.0433979,0.688692
69606960,0.0530546,0.68793
70207020,0.0625387,0.687062
70807080,0.0722178,0.68614
71407140,0.0818792,0.685039
72007200,0.0915846,0.683807
72607260,0.101069,0.682474
73207320,0.110665,0.680934
73807380,0.120345,0.67943
74407440,0.130049,0.677765
75007500,0.139545,0.675869
75607560,0.14916,0.673882
76207620,0.15874,0.671841
76807680,0.168221,0.669611
77407740,0.17746,0.667326
78007800,0.187002,0.664838
78607860,0.196436,0.662266
79207920,0.205637,0.659713
79807980,0.214845,0.656891
80408040,0.224021,0.653993
81008100,0.233514,0.650823
81608160,0.242636,0.647752
82208220,0.251943,0.644358
82808280,0.26116,0.640877
83408340,0.270154,0.637373
84008400,0.279302,0.633678
84608460,0.288373,0.629876
85208520,0.297299,0.625953
85808580,0.306282,0.621875
86408640,0.315197,0.617642
87008700,0.324076,0.613391
87608760,0.332925,0.608934
88208820,0.341857,0.60426
88808880,0.350462,0.599619
89408940,0.359057,0.594841
90009000,0.36773,0.589808
90609060,0.376253,0.584809
91209120,0.384769,0.579563
91809180,0.393205,0.57422
92409240,0.401542,0.568841
93009300,0.409835,0.563274
93609360,0.417968,0.557537
94209420,0.42622,0.551734
94809480,0.434223,0.545878
95409540,0.4423,0.539659
96009600,0.450182,0.533492
96609660,0.458212,0.527119
97209720,0.466064,0.52056
97809780,0.473633,0.514215
98409840,0.481399,0.507374
99009900,0.488814,0.500666
99609960,0.496221,0.493818
100210021,0.503681,0.486673
100810081,0.510802,0.479657
101410141,0.518079,0.472237
102010201,0.525052,0.465
102610261,0.532011,0.457537
103210321,0.538992,0.449695
103810381,0.545723,0.441926
104410441,0.552373,0.434128
105010501,0.558803,0.426286
105610561,0.565487,0.417971
106210621,0.571794,0.409881
106810681,0.577994,0.401597
107410741,0.583994,0.393361
108010801,0.589987,0.384728
108610861,0.595804,0.376407
109210921,0.601528,0.367607
109810981,0.607017,0.35916
110411041,0.612491,0.350303
111011101,0.617806,0.341435
111611161,0.623108,0.332282
112211221,0.628233,0.323051
112811281,0.633234,0.313731
113411341,0.638041,0.304654
114011401,0.642617,0.295204
114611461,0.647295,0.285733
115211521,0.65167,0.276173
115811581,0.655878,0.266659
116411641,0.660018,0.25696
117011701,0.664006,0.247287
117611761,0.667753,0.23742
118211821,0.671528,0.227364
118811881,0.674926,0.217587
119411941,0.678361,0.207639
120012001,0.681503,0.197531
120612061,0.684668,0.187336
121212121,0.687643,0.177005
121812181,0.690367,0.166729
122412241,0.692866,0.156378
123012301,0.69526,0.146145
123612361,0.697482,0.135709
124212421,0.699547,0.12531
124812481,0.701522,0.114756
125412541,0.703421,0.104356
126012601,0.705042,0.0937275
126612661,0.70657,0.0832561
127212721,0.707805,0.0727595
127812781,0.708983,0.0618428
128412841,0.709907,0.0513611
129012901,0.710691,0.0409591
129612961,0.711362,0.0302684
130213021,0.711797,0.0192829
130813081,0.712125,0.00883093
131413141,0.712157,-0.00194908
132013201,0.712264,-0.0125283
132613261,0.712047,-0.0232964
133213321,0.711667,-0.0337529
133813381,0.71119,-0.0445282
134413441,0.710491,-0.0550546
135013501,0.709604,-0.0657698
135613561,0.708612,-0.0761666
136213621,0.707411,-0.0868445
136813681,0.706078,-0.0975315
137413741,0.704604,-0.10805
138013801,0.702866,-0.1187
138613861,0.70113,-0.129096
139213921,0.699115,-0.139606
139813981,0.696981,-0.150088
140414041,0.694743,-0.160315
141014101,0.692281,-0.170705
141614161,0.689559,-0.181463
142214221,0.686719,-0.191946
142814281,0.683788,-0.202174
143414341,0.680672,-0.212287
144014401,0.677427,-0.222511
144614461,0.674024,-0.232647
145214521,0.670388,-0.242867
145814581,0.666695,-0.252916
146414641,0.662824,-0.262711
147014701,0.658818,-0.272676
147614761,0.654558,-0.282727
148214821,0.650271,-0.292412
148814881,0.645762,-0.301956
149414941,0.64128,-0.311501
150015001,0.63663,-0.320712
150615061,0.6318,-0.330324
151215121,0.6266,-0.339985
151815181,0.621458,-0.349121
152415241,0.616193,-0.35802
153015301,0.610737,-0.367374
153615361,0.60504,-0.376498
154215421,0.599413,-0.385245
154815481,0.593637,-0.393924
155415541,0.587459,-0.402902
156015601,0.581398,-0.411418
156615661,0.575116,-0.419938
157215721,0.568853,-0.428148
157815781,0.562322,-0.436467
158415841,0.555822,-0.444613
159015901,0.548921,-0.45268
159615961,0.541994,-0.460819
160216021,0.535165,-0.468624
160816081,0.528071,-0.476224
161416141,0.520978,-0.483824
162016201,0.513583,-0.491386
162616261,0.50607,-0.49887
163216321,0.498523,-0.506239
163816381,0.490897,-0.513313
164416441,0.483294,-0.520291
165016501,0.475318,-0.527415
165616561,0.46742,-0.534216
166216621,0.459343,-0.540938
166816681,0.451389,-0.547323
167416741,0.443027,-0.553936
168016801,0.434883,-0.560114
168616861,0.426643,-0.566248
169216921,0.418103,-0.572361
169816981,0.409623,-0.578357
170417041,0.400975,-0.584159
171017101,0.392494,-0.589761
171617161,0.383501,-0.595539
172217221,0.374579,-0.600968
172817281,0.365794,-0.606229
173417341,0.356798,-0.611396
174017401,0.347723,-0.61647
174617461,0.338472,-0.621489
175217521,0.329285,-0.626258
175817581,0.320199,-0.630837
176417641,0.3108,-0.635425
177017701,0.301323,-0.639838
177617761,0.292016,-0.643987
178217821,0.282476,-0.648067
178817881,0.272855,-0.652187
179417941,0.263243,-0.656106
180018001,0.253646,-0.659745
180618061,0.243842,-0.6633
181218121,0.233973,-0.666835
181818181,0.224235,-0.670029
182418241,0.214527,-0.673154
183018301,0.204365,-0.67623
183618361,0.194222,-0.679131
184218421,0.184306,-0.681845
184818481,0.174344,-0.684437
185418541,0.163906,-0.686857
186018601,0.153717,-0.689216
186618661,0.143489,-0.691364
187218721,0.13348,-0.693323
187818781,0.123394,-0.695137
188418841,0.112638,-0.696978
189018901,0.102304,-0.698513
189618961,0.0921665,-0.699881
190219021,0.0818453,-0.70108
190819081,0.0712889,-0.702198
191419141,0.0606995,-0.70319
192019201,0.0505105,-0.703925
192619261,0.0398112,-0.704596
193219321,0.0292248,-0.705028
193819381,0.0187837,-0.705392
194419441,0.00863422,-0.705506
195019501,-0.00221502,-0.705608
195619561,-0.0127169,-0.705509
196219621,-0.0230644,-0.705196
196819681,-0.0335433,-0.704731
197419741,-0.0440611,-0.704124
198019801,-0.0546623,-0.70334
198619861,-0.0650474,-0.702512
199219921,-0.0754884,-0.701391
199819981,-0.0859712,-0.70019
200420042,-0.0962543,-0.698778
201020102,-0.106707,-0.6973
201620162,-0.117377,-0.695491
202220222,-0.127685,-0.693567
202820282,-0.13807,-0.691591
203420342,-0.148027,-0.689454
204020402,-0.158594,-0.687008
204620462,-0.168803,-0.684581
205220522,-0.179177,-0.681867
205820582,-0.189572,-0.678961
206420642,-0.199329,-0.676173
207020702,-0.209191,-0.67305
207620762,-0.219423,-0.669699
208220822,-0.229437,-0.666256
208820882,-0.239538,-0.662625
209420942,-0.249574,-0.658838
210021002,-0.258915,-0.655059
210621062,-0.268793,-0.650984
211221122,-0.278487,-0.646811
211821182,-0.288038,-0.642461
212421242,-0.297814,-0.63794
213021302,-0.306809,-0.633458
213621362,-0.316408,-0.628642
214221422,-0.325792,-0.623596
214821482,-0.334774,-0.618701
215421542,-0.344311,-0.613203
216021602,-0.353371,-0.607778
216621662,-0.362228,-0.60234
217221722,-0.371217,-0.596852
217821782,-0.38001,-0.591119
218421842,-0.388791,-0.585186
219021902,-0.397289,-0.579076
219621962,-0.406012,-0.572791
220222022,-0.414386,-0.566561
220822082,-0.4227,-0.560069
221422142,-0.430965,-0.553531
222022202,-0.439183,-0.546765
222622262,-0.447122,-0.539905
223222322,-0.455098,-0.532864
223822382,-0.4628,-0.525808
224422442,-0.470624,-0.518357
225022502,-0.478057,-0.511279
225622562,-0.485597,-0.503706
226222622,-0.492847,-0.496234
226822682,-0.499954,-0.488582
227422742,-0.507158,-0.480683
228022802,-0.514009,-0.472973
228622862,-0.520596,-0.465033
229222922,-0.527381,-0.456805
229822982,-0.534071,-0.448497
230423042,-0.540533,-0.440052
231023102,-0.546619,-0.431883
231623162,-0.552699,-0.423435
232223222,-0.558726,-0.414854
232823282,-0.564626,-0.40613
233423342,-0.570319,-0.39721
234023402,-0.575916,-0.388398
234623462,-0.581287,-0.379496
235223522,-0.586544,-0.370327
235823582,-0.591638,-0.361494
236423642,-0.596624,-0.352223
237023702,-0.601342,-0.343039
237623762,-0.606057,-0.333776
238223822,-0.610537,-0.32445
238823882,-0.614897,-0.315009
239423942,-0.619074,-0.305584
240024002,-0.623006,-0.296214
240624062,-0.626915,-0.286415
241224122,-0.630744,-0.276733
241824182,-0.634145,-0.267239
242424242,-0.637612,-0.257536
243024302,-0.640871,-0.247713
243624362,-0.644058,-0.237726
244224422,-0.646971,-0.228056
244824482,-0.649674,-0.218066
245424542,-0.652311,-0.208279
246024602,-0.654803,-0.19823
246624662,-0.657092,-0.188372
247224722,-0.659203,-0.178513
247824782,-0.660997,-0.16867
248424842,-0.662923,-0.15851
249024902,-0.664588,-0.148257
249624962,-0.666067,-0.138175
250225022,-0.667439,-0.128177
250825082,-0.668663,-0.118278
251425142,-0.669685,-0.108183
252025202,-0.670518,-0.0980567
252625262,-0.671199,-0.0880343
253225322,-0.671721,-0.0780256
253825382,-0.672101,-0.0678043
254425442,-0.67242,-0.0575393
255025502,-0.672454,-0.0477332
255625562,-0.672392,-0.0378283
256225622,-0.672181,-0.0281637
256825682,-0.671831,-0.0183195
257425742,-0.671234,-0.00836816
258025802,-0.670625,0.00152532
258625862,-0.6698,0.0111786
259225922,-0.668843,0.0209067
259825982,-0.66769,0.030603
260426042,-0.66651,0.0404859
261026102,-0.66506,0.0501039
261626162,-0.663552,0.0598331
262226222,-0.661928,0.06933
262826282,-0.660107,0.0789178
263426342,-0.658223,0.0883598
264026402,-0.656173,0.0976414
264626462,-0.653924,0.107031
265226522,-0.6516,0.116534
265826582,-0.649178,0.125545
266426642,-0.646658,0.134714
267026702,-0.64391,0.143704
267626762,-0.641084,0.152933
268226822,-0.638062,0.161941
268826882,-0.635037,0.170824
269426942,-0.631665,0.17996
270027002,-0.628473,0.188569
270627062,-0.625048,0.197297
271227122,-0.621479,0.206047
271827182,-0.617866,0.214469
272427242,-0.613987,0.223265
273027302,-0.610184,0.231332
273627362,-0.606196,0.239693
274227422,-0.602241,0.247705
274827482,-0.597959,0.256243
275427542,-0.593607,0.264234
276027602,-0.589177,0.272499
276627662,-0.584667,0.280572
277227722,-0.580037,0.28836
277827782,-0.575379,0.296211
278427842,-0.57054,0.303998
279027902,-0.565613,0.311642
279627962,-0.560687,0.31908
280228022,-0.55557,0.326523
280828082,-0.550515,0.333898
281428142,-0.545201,0.341347
282028202,-0.539736,0.348639
282628262,-0.534424,0.355608
283228322,-0.529005,0.362577
283828382,-0.523367,0.369607
284428442,-0.517722,0.376549
285028502,-0.512009,0.383338
285628562,-0.506118,0.390076
286228622,-0.500256,0.396685
286828682,-0.494249,0.403211
287428742,-0.488142,0.409697
288028802,-0.482034,0.415986
288628862,-0.475943,0.422208
289228922,-0.469689,0.428296
289828982,-0.463388,0.434403
290429042,-0.457117,0.440303
291029102,-0.450699,0.446027
291629162,-0.444273,0.451806
292229222,-0.437549,0.457708
292829282,-0.430908,0.463251
293429342,-0.424166,0.468801
294029402,-0.417481,0.474193
294629462,-0.410835,0.479361
295229522,-0.403986,0.484568
295829582,-0.396924,0.489814
296429642,-0.389974,0.494812
297029702,-0.383036,0.499701
297629762,-0.375937,0.504584
298229822,-0.368639,0.509445
298829882,-0.361514,0.514063
299429942,-0.354646,0.51845
300030003,-0.347246,0.522998
300630063,-0.339911,0.52736
301230123,-0.332635,0.531684
301830183,-0.325252,0.535813
302430243,-0.317698,0.539972
303030303,-0.310472,0.543813
303630363,-0.302935,0.547797
304230423,-0.2953,0.551603
304830483,-0.287777,0.555224
305430543,-0.280296,0.558845
306030603,-0.27251,0.562413
306630663,-0.264982,0.56576
307230723,-0.257284,0.56907
307830783,-0.249654,0.572252
308430843,-0.242,0.575337
309030903,-0.234224,0.578341
309630963,-0.22631,0.581405
310231023,-0.218529,0.58423
310831083,-0.210559,0.586949
311431143,-0.202727,0.589618
312031203,-0.19472,0.592197
312631263,-0.186901,0.594632
313231323,-0.177558,0.597294
313831383,-0.169558,0.599591
314431443,-0.161507,0.601743
315031503,-0.153234,0.60388
315631563,-0.145128,0.605835
316231623,-0.136884,0.607702
316831683,-0.128471,0.609489
317431743,-0.120506,0.611112
318031803,-0.112324,0.612661
318631863,-0.104137,0.614204
319231923,-0.0958845,0.615508
319831983,-0.087828,0.6168
320432043,-0.0796112,0.617932
321032103,-0.0711924,0.619002
321632163,-0.063162,0.619908
322232223,-0.0548104,0.620762
322832283,-0.0466042,0.621536
323432343,-0.0382988,0.622222
324032403,-0.0301959,0.622751
324632463,-0.0217308,0.623254
325232523,-0.013572,0.623561
325832583,-0.00507436,0.623818
326432643,0.00320924,0.624139
327032703,0.011456,0.624185
327632763,0.0199485,0.624145
328232823,0.0285529,0.623926
328832883,0.036839,0.623742
329432943,0.0450644,0.623273
330033003,0.0534657,0.622859
330633063,0.0620629,0.62232
331233123,0.0706009,0.621631
331833183,0.078978,0.620952
332433243,0.0876511,0.619923
333033303,0.0961362,0.619012
333633363,0.104384,0.617891
334233423,0.112907,0.616757
334833483,0.121351,0.615438
335433543,0.1298,0.613879
336033603,0.138152,0.61245
336633663,0.146526,0.610768
337233723,0.154929,0.609051
337833783,0.163355,0.607127
338433843,0.171579,0.605276
339033903,0.180114,0.603143
339633963,0.188392,0.600975
340234023,0.19673,0.598701
340834083,0.204844,0.596268
341434143,0.213137,0.593782
342034203,0.221303,0.591193
342634263,0.229461,0.588412
343234323,0.237791,0.585642
343834383,0.246118,0.582616
344434443,0.253923,0.579576
345034503,0.262318,0.576202
345634563,0.270483,0.572987
346234623,0.278488,0.569526
346834683,0.286522,0.566031
347434743,0.294602,0.562321
348034803,0.302646,0.55856
348634863,0.310835,0.554583
349234923,0.318605,0.550652
349834983,0.326349,0.546685
350435043,0.334448,0.542295
351035103,0.342148,0.537843
351635163,0.34985,0.533498
352235223,0.357962,0.528762
352835283,0.365311,0.524171
353435343,0.372977,0.519285
354035403,0.380448,0.514477
354635463,0.387965,0.509531
355235523,0.39549,0.504241
355835583,0.402787,0.499046
356435643,0.410078,0.493626
357035703,0.417401,0.488169
357635763,0.424617,0.48264
358235823,0.431822,0.476803
358835883,0.438882,0.470987
359435943,0.445888,0.465105
360036003,0.452798,0.4591
360636063,0.459707,0.452861
361236123,0.466596,0.446458
361836183,0.473295,0.440104
362436243,0.479874,0.433764
363036303,0.486393,0.427246
363636363,0.492876,0.42047
364236423,0.49926,0.41353
364836483,0.505661,0.406804
365436543,0.51169,0.399902
366036603,0.517781,0.392812
366636663,0.523834,0.385585
367236723,0.529861,0.37827
367836783,0.535685,0.370922
368436843,0.541403,0.36351
369036903,0.547005,0.355861
369636963,0.552569,0.348208
370237023,0.557996,0.340202
370837083,0.563408,0.332374
371437143,0.568528,0.324396
372037203,0.573835,0.316091
372637263,0.578662,0.308033
373237323,0.583591,0.299768
373837383,0.588414,0.291362
374437443,0.592994,0.283034
375037503,0.597652,0.274626
375637563,0.602058,0.265963
376237623,0.606308,0.257465
376837683,0.610302,0.248978
377437743,0.614478,0.240006
378037803,0.618349,0.23116
378637863,0.622113,0.222136
379237923,0.625686,0.213266
379837983,0.629209,0.203933
380438043,0.632545,0.194844
381038103,0.63588,0.185474
381638163,0.638859,0.17639
382238223,0.641884,0.166899
382838283,0.644696,0.157669
383438343,0.647337,0.148169
384038403,0.649918,0.138797
384638463,0.652299,0.129178
385238523,0.654615,0.119797
385838583,0.656692,0.110005
386438643,0.658539,0.100306
387038703,0.660421,0.0906558
387638763,0.662028,0.0810018
388238823,0.66358,0.0713757
388838883,0.664913,0.0615828
389438943,0.666162,0.0516209
390039003,0.667346,0.0418082
390639063,0.668267,0.0318957
391239123,0.66898,0.0220103
391839183,0.669628,0.0120589
392439243,0.670216,0.00211604
393039303,0.670494,-0.00761861
393639363,0.670647,-0.0176858
394239423,0.670626,-0.0275863
394839483,0.670569,-0.0377749
395439543,0.670231,-0.0474743
396039603,0.669738,-0.0575297
396639663,0.669216,-0.0676466
397239723,0.668431,-0.0776251
397839783,0.667546,-0.087524
398439843,0.666343,-0.0977747
399039903,0.665145,-0.107752
399639963,0.663789,-0.117779
400240024,0.662201,-0.127689
400840084,0.660571,-0.137793
401440144,0.658672,-0.147963
402040204,0.656576,-0.157699
402640264,0.654472,-0.167486
403240324,0.652157,-0.177371
403840384,0.649532,-0.187415
404440444,0.646938,-0.197074
