Frequency (Hz),S12 Real,S12 Imaginary
100000000,0.498094,0.491094
100590059,0.505366,0.484081
101180118,0.512419,0.47713
101770177,0.519233,0.470042
102360236,0.526324,0.462706
102950295,0.53335,0.455119
103540354,0.539874,0.447865
104130413,0.546625,0.440146
104720472,0.55312,0.432495
105310531,0.559486,0.424773
105900590,0.565784,0.416877
106490649,0.572024,0.408908
107080708,0.578121,0.400765
107670767,0.584186,0.392432
108260826,0.589995,0.384189
108850885,0.595898,0.375554
109440944,0.601382,0.36725
110031003,0.606908,0.358794
110621062,0.612237,0.350075
111211121,0.617622,0.341311
111801180,0.622658,0.332528
112391239,0.627686,0.323527
112981298,0.63257,0.314486
113571357,0.637367,0.305284
114161416,0.641943,0.296149
114751475,0.646449,0.286944
115341534,0.650786,0.277707
115931593,0.655035,0.268306
116521652,0.65917,0.258581
117111711,0.663153,0.24901
117701770,0.666994,0.239412
118291829,0.670575,0.229923
118881888,0.674042,0.220115
119471947,0.677298,0.210507
120062006,0.680674,0.200343
120652065,0.683791,0.190456
121242124,0.686731,0.180353
121832183,0.689317,0.170696
122422242,0.691949,0.160597
123012301,0.694434,0.150087
123602360,0.696685,0.139981
124192419,0.698848,0.129703
124782478,0.700844,0.119469
125372537,0.702795,0.109128
125962596,0.704532,0.0989377
126552655,0.705982,0.0884254
127142714,0.707363,0.0780433
127732773,0.708676,0.0676377
128322832,0.709714,0.0572773
128912891,0.71056,0.046736
129502950,0.711275,0.0363804
130093009,0.711822,0.0257623
130683068,0.712261,0.0151943
131273127,0.712482,0.00503386
131863186,0.71266,-0.00550838
132453245,0.71252,-0.0159475
133043304,0.712262,-0.0265372
133633363,0.712155,-0.0369281
134223422,0.711403,-0.0472787
134813481,0.710661,-0.0579055
135403540,0.709796,-0.0683904
135993599,0.708756,-0.0792602
136583658,0.707607,-0.0895976
137173717,0.706362,-0.0994765
137763776,0.704874,-0.10992
138353835,0.703182,-0.120367
138943894,0.701397,-0.130646
139533953,0.699357,-0.141134
140124012,0.697293,-0.151237
140714071,0.694987,-0.161709
141304130,0.692554,-0.171905
141894189,0.689894,-0.182177
142484248,0.687201,-0.192344
143074307,0.684297,-0.202296
143664366,0.68121,-0.212229
144254425,0.678057,-0.222433
144844484,0.674729,-0.23242
145434543,0.671177,-0.24228
146024602,0.66759,-0.252161
146614661,0.663773,-0.261942
147204720,0.659794,-0.271735
147794779,0.655703,-0.281367
148384838,0.651517,-0.290995
148974897,0.64698,-0.300924
149564956,0.642611,-0.310042
150155015,0.63805,-0.31922
150745074,0.633339,-0.328563
151335133,0.628347,-0.337756
151925192,0.623266,-0.346961
152515251,0.618032,-0.356112
153105310,0.61278,-0.365037
153695369,0.607446,-0.373768
154285428,0.601777,-0.382533
154875487,0.596095,-0.391221
155465546,0.590129,-0.400054
156055605,0.584172,-0.408589
156645664,0.578196,-0.416847
157235723,0.572007,-0.425134
157825782,0.565662,-0.433407
158415841,0.559085,-0.441599
159005900,0.552452,-0.449633
159595959,0.545866,-0.457325
160186018,0.539319,-0.464856
160776077,0.532492,-0.472479
161366136,0.525327,-0.480345
161956195,0.518226,-0.487712
162546254,0.511014,-0.494971
163136313,0.503593,-0.502368
163726372,0.496111,-0.509523
164316431,0.488672,-0.516441
164906490,0.480888,-0.523492
165496549,0.473258,-0.530215
166086608,0.465506,-0.536796
166676667,0.457718,-0.543351
167266726,0.449645,-0.549837
167856785,0.441686,-0.556041
168446844,0.433461,-0.562332
169036903,0.425396,-0.568239
169626962,0.417021,-0.574273
170217021,0.408554,-0.580253
170807080,0.40012,-0.586019
171397139,0.391575,-0.591551
171987198,0.382981,-0.597061
172577257,0.374338,-0.602336
173167316,0.365421,-0.607676
173757375,0.356541,-0.612753
174347434,0.347808,-0.617575
174937493,0.338734,-0.622487
175527552,0.330038,-0.627073
176117611,0.320575,-0.63182
176707670,0.311642,-0.636253
177297729,0.302247,-0.640637
177887788,0.293242,-0.644608
178477847,0.283635,-0.648917
179067906,0.274323,-0.652766
179657965,0.264794,-0.656675
180248024,0.255369,-0.660261
180838083,0.24602,-0.663701
181428142,0.236488,-0.667109
182018201,0.226569,-0.67042
182608260,0.21693,-0.673532
183198319,0.207129,-0.676561
183788378,0.197291,-0.679426
184378437,0.187461,-0.682158
184968496,0.177436,-0.684792
185558555,0.167631,-0.68721
186148614,0.157472,-0.689614
186738673,0.147583,-0.691799
187328732,0.137429,-0.693794
187918791,0.127518,-0.695617
188508850,0.117552,-0.697419
189098909,0.107272,-0.699066
189688968,0.0970732,-0.700602
190279027,0.0869427,-0.701909
190869086,0.0766748,-0.702986
191459145,0.0666753,-0.704038
192049204,0.0562355,-0.704929
192639263,0.0457197,-0.705663
193229322,0.0354339,-0.706284
193819381,0.0255537,-0.706771
194409440,0.0150192,-0.70693
194999499,0.0049422,-0.707149
195589558,-0.00529186,-0.707177
196179617,-0.0154488,-0.707104
196769676,-0.0260122,-0.706791
197359735,-0.0362334,-0.706298
197949794,-0.0466095,-0.705688
198539853,-0.0567637,-0.704957
199129912,-0.0674149,-0.704084
199719971,-0.0774701,-0.70299
200310030,-0.0878235,-0.701715
200900089,-0.0978671,-0.700403
201490148,-0.108267,-0.698926
202080207,-0.118408,-0.697194
202670266,-0.128396,-0.695428
203260325,-0.138663,-0.693461
203850385,-0.149076,-0.691227
204440444,-0.15919,-0.688942
205030503,-0.169107,-0.68659
205620562,-0.179434,-0.683978
206210621,-0.189154,-0.681277
206800680,-0.199296,-0.678332
207390739,-0.209608,-0.675192
207980798,-0.219174,-0.67214
208570857,-0.229321,-0.66873
209160916,-0.238936,-0.665283
209750975,-0.248716,-0.661617
210341034,-0.258422,-0.657751
210931093,-0.268104,-0.653985
211521152,-0.277582,-0.649907
212111211,-0.286865,-0.645708
212701270,-0.296325,-0.641337
213291329,-0.305917,-0.636698
213881388,-0.315013,-0.632151
214471447,-0.324153,-0.627361
215061506,-0.333573,-0.62234
215651565,-0.342663,-0.617187
216241624,-0.351433,-0.612161
216831683,-0.36037,-0.60677
217421742,-0.369362,-0.601252
218011801,-0.377984,-0.595665
218601860,-0.38673,-0.589807
219191919,-0.395449,-0.583796
219781978,-0.404036,-0.577682
220372037,-0.412363,-0.571689
220962096,-0.420387,-0.565494
221552155,-0.428789,-0.559016
222142214,-0.437028,-0.552372
222732273,-0.4451,-0.545662
223322332,-0.452968,-0.538835
223912391,-0.460645,-0.532003
224502450,-0.468415,-0.525005
225092509,-0.475969,-0.517841
225682568,-0.483375,-0.510502
226272627,-0.49076,-0.503095
226862686,-0.498012,-0.495465
227452745,-0.505059,-0.487892
228042804,-0.511962,-0.480174
228632863,-0.518509,-0.472657
229222922,-0.525324,-0.464584
229812981,-0.531978,-0.456519
230403040,-0.538367,-0.448502
230993099,-0.544789,-0.440177
231583158,-0.55094,-0.431847
232173217,-0.557057,-0.423227
232763276,-0.562923,-0.414838
233353335,-0.568673,-0.406181
233943394,-0.574182,-0.397631
234533453,-0.579676,-0.388816
235123512,-0.585176,-0.379716
235713571,-0.590269,-0.371068
236303630,-0.595234,-0.362056
236893689,-0.600167,-0.352951
237483748,-0.604952,-0.343809
238073807,-0.609395,-0.334828
238663866,-0.614035,-0.325216
239253925,-0.618343,-0.315818
239843984,-0.622401,-0.306518
240434043,-0.626311,-0.297136
241024102,-0.630217,-0.287637
241614161,-0.633896,-0.278139
242204220,-0.637399,-0.268592
242794279,-0.640813,-0.259007
243384338,-0.644001,-0.249307
243974397,-0.646995,-0.239854
244564456,-0.650061,-0.229926
245154515,-0.652662,-0.220377
245744574,-0.655337,-0.21069
246334633,-0.65778,-0.200889
246924692,-0.660194,-0.190917
247514751,-0.662271,-0.181301
248104810,-0.664347,-0.171189
248694869,-0.666087,-0.161347
249284928,-0.667819,-0.151464
249874987,-0.669347,-0.141423
250465046,-0.670658,-0.131573
251055105,-0.67196,-0.121443
251645164,-0.672874,-0.111683
252235223,-0.673857,-0.101671
252825282,-0.674695,-0.0914589
253415341,-0.675194,-0.0818132
254005400,-0.675673,-0.0716957
254595459,-0.675907,-0.0620564
255185518,-0.676091,-0.0520924
255775577,-0.676017,-0.0422049
256365636,-0.675901,-0.0324062
256955695,-0.675541,-0.0225982
257545754,-0.675082,-0.0128367
258135813,-0.674468,-0.00302083
258725872,-0.673672,0.00662291
259315931,-0.672793,0.0165235
259905990,-0.671807,0.0261608
260496049,-0.670631,0.0358877
261086108,-0.669264,0.0454188
261676167,-0.66784,0.0547351
262266226,-0.666214,0.0640351
262856285,-0.664495,0.073712
263446344,-0.662611,0.0828808
264036403,-0.660599,0.0927011
264626462,-0.658457,0.101713
265216521,-0.656195,0.110731
265806580,-0.653899,0.120056
266396639,-0.651368,0.129059
266986698,-0.648722,0.138295
267576757,-0.645946,0.147181
268166816,-0.643,0.156221
268756875,-0.639996,0.165168
269346934,-0.636951,0.173891
269936993,-0.633621,0.183016
270527052,-0.630376,0.191559
271117111,-0.627015,0.199773
271707170,-0.623367,0.208476
272297229,-0.619823,0.216415
272887288,-0.616008,0.224993
273477347,-0.612193,0.23326
274067406,-0.608202,0.241468
274657465,-0.604065,0.249757
275247524,-0.600064,0.25758
275837583,-0.595684,0.265627
276427642,-0.591237,0.273532
277017701,-0.586798,0.281538
277607760,-0.582249,0.28923
278197819,-0.577589,0.297002
278787878,-0.57283,0.304602
279377937,-0.568113,0.312057
279967996,-0.563357,0.319312
280558055,-0.558249,0.326913
281148114,-0.553304,0.334019
281738173,-0.548018,0.341351
282328232,-0.542999,0.348234
282918291,-0.537674,0.355344
283508350,-0.532168,0.362434
284098409,-0.526664,0.369389
284688468,-0.520972,0.376384
285278527,-0.515399,0.382959
285868586,-0.509599,0.389688
286458645,-0.503824,0.396155
287048704,-0.497914,0.402714
287638763,-0.492148,0.408918
288228822,-0.486088,0.415206
288818881,-0.480047,0.421283
289408940,-0.473844,0.427336
289998999,-0.467755,0.433331
290589058,-0.461549,0.439278
291179117,-0.45525,0.445003
291769176,-0.44886,0.450762
292359235,-0.44233,0.456455
292949294,-0.43588,0.462024
293539353,-0.429304,0.46747
294129412,-0.422593,0.472861
294719471,-0.415991,0.478028
295309530,-0.409164,0.483226
295899589,-0.402519,0.488314
296489648,-0.39549,0.493481
297079707,-0.388583,0.498426
297669766,-0.381833,0.50308
298259825,-0.374806,0.507847
298849884,-0.367661,0.512525
299439943,-0.360454,0.5171
300030002,-0.353426,0.521539
300620061,-0.346337,0.525888
301210120,-0.339077,0.53012
301800179,-0.331922,0.534304
302390238,-0.324632,0.538335
302980297,-0.317248,0.542389
303570356,-0.310081,0.546159
304160415,-0.302675,0.54998
304750474,-0.295268,0.553702
305340533,-0.288034,0.55717
305930592,-0.280556,0.560654
306520651,-0.272888,0.564228
307110711,-0.265433,0.567535
307700770,-0.258077,0.570598
308290829,-0.250283,0.573868
308880888,-0.242622,0.576889
309470947,-0.235048,0.579915
310061006,-0.227285,0.582769
310651065,-0.219527,0.585569
311241124,-0.211931,0.588151
311831183,-0.204142,0.590776
312421242,-0.196482,0.593248
313011301,-0.187309,0.596147
313601360,-0.17944,0.598436
314191419,-0.171685,0.60064
314781478,-0.163457,0.602754
315371537,-0.155758,0.604819
315961596,-0.147615,0.606774
316551655,-0.139691,0.608603
317141714,-0.131769,0.610363
317731773,-0.123585,0.612032
318321832,-0.115649,0.613568
318911891,-0.107652,0.614991
319501950,-0.0998038,0.616298
320092009,-0.0918276,0.617616
320682068,-0.0837464,0.618858
321272127,-0.0757736,0.619876
321862186,-0.0675357,0.620944
322452245,-0.0595343,0.621818
323042304,-0.0511423,0.622634
323632363,-0.0430353,0.623361
324222422,-0.0351633,0.623951
324812481,-0.0269972,0.62444
325402540,-0.0186067,0.624884
325992599,-0.0105099,0.625236
326582658,-0.00255155,0.625434
327172717,0.00578367,0.625579
327762776,0.0141917,0.625616
328352835,0.0224825,0.62557
328942894,0.0307202,0.625366
329532953,0.0391622,0.625163
330123012,0.0472476,0.62474
330713071,0.0553448,0.624393
331303130,0.0639014,0.623769
331893189,0.0719072,0.623108
332483248,0.080301,0.622399
333073307,0.0883528,0.62156
333663366,0.0968272,0.62058
334253425,0.105073,0.619484
334843484,0.113138,0.618431
335433543,0.12121,0.617305
336023602,0.129706,0.615858
336613661,0.137838,0.6144
337203720,0.14614,0.612787
337793779,0.154389,0.611134
338383838,0.162624,0.609406
338973897,0.171054,0.607429
339563956,0.179346,0.605426
340154015,0.18765,0.603283
340744074,0.195618,0.601094
341334133,0.203889,0.598676
341924192,0.212028,0.596221
342514251,0.220115,0.59374
343104310,0.228426,0.591051
343694369,0.23655,0.588298
344284428,0.244587,0.585392
344874487,0.252569,0.58232
345464546,0.260416,0.579329
346054605,0.268904,0.575925
346644664,0.276604,0.57266
347234723,0.284395,0.569238
347824782,0.292348,0.565673
348414841,0.300453,0.561975
349004900,0.308323,0.558107
349594959,0.316101,0.554263
350185018,0.323821,0.550228
350775077,0.331514,0.546161
351365136,0.339236,0.54192
351955195,0.346973,0.537648
352545254,0.354579,0.533156
353135313,0.362383,0.528482
353725372,0.369897,0.523823
354315431,0.377254,0.519099
354905490,0.384425,0.514495
355495549,0.391871,0.509277
356085608,0.399341,0.504239
356675667,0.406423,0.499185
357265726,0.413682,0.493822
357855785,0.4208,0.488496
358445844,0.427804,0.482939
359035903,0.434996,0.477278
359625962,0.441986,0.471523
360216021,0.448837,0.465722
360806080,0.455595,0.459827
361396139,0.462451,0.453797
361986198,0.46912,0.447562
362576257,0.475838,0.441208
363166316,0.482166,0.435047
363756375,0.488706,0.428606
364346434,0.494725,0.422303
364936493,0.501254,0.415509
365526552,0.50761,0.408579
366116611,0.513487,0.401933
366706670,0.519641,0.394901
367296729,0.52558,0.387824
367886788,0.531586,0.380547
368476847,0.537193,0.373392
369066906,0.54281,0.36609
369656965,0.548415,0.358615
370247024,0.55396,0.351123
370837083,0.559399,0.343391
371427142,0.564668,0.335696
372017201,0.569889,0.327732
372607260,0.574917,0.319823
373197319,0.57986,0.311939
373787378,0.584781,0.303818
374377437,0.58958,0.295394
374967496,0.594169,0.287298
375557555,0.599028,0.278734
376147614,0.603354,0.270445
376737673,0.607637,0.261974
377327732,0.61168,0.253561
377917791,0.615685,0.24496
378507850,0.619595,0.236314
379097909,0.623379,0.227531
379687968,0.627113,0.21828
380278027,0.630694,0.209418
380868086,0.63405,0.200538
381458145,0.637275,0.19161
382048204,0.640453,0.182536
382638263,0.643469,0.173448
383228322,0.646321,0.164308
383818381,0.6491,0.154925
384408440,0.651681,0.145861
384998499,0.654158,0.136494
385588558,0.656563,0.126799
386178617,0.658743,0.117534
386768676,0.660767,0.107873
387358735,0.662669,0.0985009
387948794,0.664439,0.089077
388538853,0.666057,0.0792475
389128912,0.667523,0.069838
389718971,0.66893,0.0601614
390309030,0.670158,0.0504294
390899089,0.671231,0.0407356
391489148,0.672088,0.0311246
392079207,0.672842,0.0213725
392669266,0.673482,0.0115355
393259325,0.673972,0.00194865
393849384,0.674311,-0.00791133
394439443,0.674554,-0.0177355
395029502,0.674582,-0.02773
395619561,0.674544,-0.037396
396209620,0.67424,-0.047507
396799679,0.673879,-0.0573355
397389738,0.673286,-0.0672644
397979797,0.672627,-0.0771626
398569856,0.671747,-0.0870791
399159915,0.670736,-0.0968695
399749974,0.669507,-0.106773
400340033,0.668226,-0.116562
400930092,0.666826,-0.12645
401520151,0.665186,-0.136228
402110210,0.663311,-0.146076
402700269,0.661463,-0.155616
403290328,0.659249,-0.16564
403880387,0.657111,-0.175222
404470446,0.654757,-0.184731
405060505,0.652253,-0.1944
405650564,0.649483,-0.204204
406240623,0.646696,-0.213647
406830682,0.643756,-0.223176
407420741,0.640639,-0.232836
408010800,0.637415,-0.242338
408600859,0.634012,-0.251689
409190918,0.630564,-0.260967
409780977,0.626825,-0.270234
410371036,0.623014,-0.279616
410961096,0.619122,-0.288845
411551155,0.614933,-0.298077
412141214,0.610648,-0.307238
412731273,0.606285,-0.316241
413321332,0.601872,-0.325129
413911391,0.597139,-0.334161
414501450,0.592366,-0.342899
415091509,0.587389,-0.35188
415681568,0.582427,-0.360561
416271627,0.577114,-0.369432
416861686,0.571693,-0.378013
417451745,0.566203,-0.386609
418041804,0.560729,-0.395019
418631863,0.555009,-0.403326
419221922,0.549094,-0.411652
419811981,0.543211,-0.419785
420402040,0.537208,-0.427899
420992099,0.530751,-0.436214
421582158,0.524589,-0.443926
422172217,0.517747,-0.452011
422762276,0.511417,-0.459472
423352335,0.504604,-0.467265
423942394,0.497947,-0.474658
424532453,0.490934,-0.482251
425122512,0.483948,-0.489621
425712571,0.476631,-0.497016
426302630,0.469385,-0.504135
426892689,0.462048,-0.511046
427482748,0.454644,-0.517852
428072807,0.447039,-0.524659
428662866,0.439501,-0.531339
429252925,0.431453,-0.538104
429842984,0.423631,-0.544481
430433043,0.415592,-0.550954
431023102,0.407542,-0.557283
431613161,0.399389,-0.563417
432203220,0.391075,-0.569361
432793279,0.382602,-0.575262
433383338,0.373858,-0.581123
433973397,0.365337,-0.586698
434563456,0.356716,-0.592083
435153515,0.347817,-0.597521
435743574,0.339111,-0.602599
436333633,0.329988,-0.607761
436923692,0.320761,-0.612747
437513751,0.311916,-0.61733
438103810,0.302933,-0.621955
438693869,0.293545,-0.626532
439283928,0.284188,-0.630855
439873987,0.275032,-0.635081
440464046,0.265659,-0.639123
441054105,0.255796,-0.643304
441644164,0.246658,-0.646838
442234223,0.237078,-0.650507
442824282,0.227429,-0.653846
443414341,0.217548,-0.657252
444004400,0.207632,-0.660549
444594459,0.198174,-0.66343
445184518,0.188009,-0.666434
445774577,0.178172,-0.669209
446364636,0.168433,-0.671738
446954695,0.158322,-0.674244
447544754,0.148365,-0.676441
448134813,0.138487,-0.678502
448724872,0.128388,-0.680523
449314931,0.118284,-0.682366
449904990,0.108175,-0.684101
450495049,0.0977644,-0.685667
451085108,0.0877264,-0.687002
451675167,0.0775633,-0.688202
452265226,0.0673404,-0.689282
452855285,0.0569743,-0.690136
453445344,0.0467966,-0.690937
454035403,0.0368578,-0.691441
454625462,0.0263745,-0.691878
455215521,0.0162326,-0.692145
455805580,0.0058474,-0.692193
456395639,-0.00436902,-0.692076
456985698,-0.0147402,-0.69192
457575757,-0.0249479,-0.691472
458165816,-0.0351928,-0.690915
458755875,-0.045107,-0.690266
459345934,-0.0552795,-0.689356
459935993,-0.0655194,-0.688292
460526052,-0.0756843,-0.687131
461116111,-0.0855882,-0.685765
461706170,-0.0957781,-0.68439
462296229,-0.105405,-0.682732
462886288,-0.115421,-0.680996
463476347,-0.125699,-0.679091
464066406,-0.135668,-0.676873
464656465,-0.145319,-0.674817
465246524,-0.1553,-0.67244
465836583,-0.164938,-0.669993
466426642,-0.17472,-0.667451
467016701,-0.184426,-0.664607
467606760,-0.194132,-0.661725
468196819,-0.203733,-0.658694
468786878,-0.213406,-0.65551
469376937,-0.223055,-0.652125
469966996,-0.232633,-0.648647
470557055,-0.242193,-0.645049
471147114,-0.251643,-0.641148
471737173,-0.260971,-0.637272
472327232,-0.270288,-0.633219
472917291,-0.279529,-0.629078
473507350,-0.28874,-0.624736
474097409,-0.298157,-0.620186
474687468,-0.307166,-0.615496
475277527,-0.316164,-0.610689
475867586,-0.325063,-0.605888
476457645,-0.334123,-0.600686
477047704,-0.342809,-0.595454
477637763,-0.351533,-0.590084
478227822,-0.360058,-0.584702
478817881,-0.368779,-0.578974
479407940,-0.377077,-0.573268
479997999,-0.385303,-0.567447
480588058,-0.393769,-0.561297
481178117,-0.401708,-0.555208
481768176,-0.409832,-0.549001
482358235,-0.417676,-0.542683
482948294,-0.425549,-0.536212
483538353,-0.433251,-0.52954
484128412,-0.441014,-0.522745
484718471,-0.448297,-0.516025
485308530,-0.455598,-0.509322
485898589,-0.463011,-0.501889
486488648,-0.470389,-0.494807
487078707,-0.477206,-0.487632
487668766,-0.484036,-0.4803
488258825,-0.490831,-0.472753
488848884,-0.497679,-0.46511
489438943,-0.504185,-0.457348
490029002,-0.510557,-0.449723
490619061,-0.516969,-0.441735
491209120,-0.52309,-0.433911
491799179,-0.529059,-0.425915
