Frequency (Hz),S12 Real,S12 Imaginary
100000000,0.500056,0.492473
100590059,0.507295,0.485526
101180118,0.514227,0.478607
101770177,0.521304,0.471462
102360236,0.528286,0.464035
102950295,0.535265,0.456521
103540354,0.541946,0.449111
104130413,0.548573,0.441454
104720472,0.555074,0.433815
105310531,0.561518,0.426008
105900590,0.567905,0.418064
106490649,0.574084,0.409989
107080708,0.580349,0.401728
107670767,0.586068,0.393725
108260826,0.591979,0.385402
108850885,0.597844,0.376889
109440944,0.6034,0.368413
110031003,0.609032,0.359643
110621062,0.614262,0.351098
111211121,0.619701,0.342148
111801180,0.62477,0.333452
112391239,0.629838,0.324541
112981298,0.634764,0.315422
113571357,0.639538,0.306385
114161416,0.644095,0.297113
114751475,0.648648,0.287907
115341534,0.653128,0.278273
115931593,0.657282,0.269002
116521652,0.66127,0.25965
117111711,0.665273,0.249919
117701770,0.669114,0.240282
118291829,0.672807,0.230509
118881888,0.676374,0.220607
119471947,0.679704,0.210677
120062006,0.682979,0.200789
120652065,0.685954,0.190928
121242124,0.688874,0.180813
121832183,0.691658,0.170809
122422242,0.694219,0.160874
123012301,0.6967,0.150519
123602360,0.698932,0.140303
124192419,0.701043,0.13008
124782478,0.703077,0.120064
125372537,0.70498,0.109616
125962596,0.706705,0.0990445
126552655,0.708218,0.0887739
127142714,0.70963,0.0783845
127732773,0.710885,0.0679612
128322832,0.711848,0.0574198
128912891,0.71278,0.0467843
129502950,0.713527,0.0364365
130093009,0.714075,0.0258508
130683068,0.714507,0.0154672
131273127,0.714807,0.00464067
131863186,0.714842,-0.00590251
132453245,0.714761,-0.0160262
133043304,0.714544,-0.0265746
133633363,0.714198,-0.036764
134223422,0.713682,-0.0475694
134813481,0.71291,-0.0580386
135403540,0.712119,-0.0682799
135993599,0.711063,-0.0786429
136583658,0.709932,-0.0896225
137173717,0.708524,-0.0999801
137763776,0.707059,-0.110051
138353835,0.705447,-0.120593
138943894,0.703583,-0.130825
139533953,0.70166,-0.141146
140124012,0.699467,-0.151418
140714071,0.697243,-0.161799
141304130,0.694807,-0.172041
141894189,0.692137,-0.182471
142484248,0.689385,-0.19251
143074307,0.686361,-0.202974
143664366,0.683298,-0.213308
144254425,0.680133,-0.223256
144844484,0.676832,-0.233078
145434543,0.673315,-0.242972
146024602,0.669627,-0.253013
146614661,0.665856,-0.262814
147204720,0.661843,-0.272661
147794779,0.657813,-0.282251
148384838,0.653445,-0.292126
148974897,0.649115,-0.301503
149564956,0.644653,-0.311039
150155015,0.640034,-0.320486
150745074,0.635137,-0.329786
151335133,0.630339,-0.338855
151925192,0.625332,-0.347996
152515251,0.620005,-0.357206
153105310,0.614668,-0.366152
153695369,0.609099,-0.375229
154285428,0.603616,-0.38394
154875487,0.59781,-0.392653
155465546,0.59208,-0.401246
156055605,0.586116,-0.40956
156645664,0.580078,-0.418003
157235723,0.573873,-0.426452
157825782,0.567533,-0.434741
158415841,0.560997,-0.442854
159005900,0.554483,-0.450768
159595959,0.547636,-0.458803
160186018,0.540849,-0.466653
160776077,0.534046,-0.474346
161366136,0.526895,-0.481948
161956195,0.519773,-0.489512
162546254,0.512756,-0.496606
163136313,0.505344,-0.503858
163726372,0.497807,-0.511053
164316431,0.490187,-0.518267
164906490,0.482669,-0.525086
165496549,0.474878,-0.531875
166086608,0.46705,-0.538585
166676667,0.459278,-0.545063
167266726,0.451087,-0.551627
167856785,0.443174,-0.557778
168446844,0.434934,-0.564141
169036903,0.426518,-0.570403
169626962,0.418259,-0.576351
170217021,0.409913,-0.582177
170807080,0.401433,-0.587909
171397139,0.392794,-0.593553
171987198,0.384387,-0.598914
172577257,0.375807,-0.604239
173167316,0.366935,-0.609473
173757375,0.358097,-0.614586
174347434,0.349014,-0.619712
174937493,0.340046,-0.624586
175527552,0.330651,-0.629345
176117611,0.321918,-0.633846
176707670,0.31258,-0.638354
177297729,0.303479,-0.642671
177887788,0.294176,-0.646864
178477847,0.284669,-0.650998
179067906,0.275115,-0.654949
179657965,0.265613,-0.658809
180248024,0.256193,-0.662514
180838083,0.246626,-0.665965
181428142,0.23676,-0.669431
182018201,0.227411,-0.672721
182608260,0.217576,-0.675836
183198319,0.208101,-0.678767
183788378,0.197889,-0.68176
184378437,0.188187,-0.684331
184968496,0.178273,-0.686993
185558555,0.168185,-0.689499
186148614,0.158249,-0.691855
186738673,0.148173,-0.694048
187328732,0.13805,-0.696043
187918791,0.127983,-0.697982
188508850,0.117765,-0.699746
189098909,0.107657,-0.701372
189688968,0.0972728,-0.702818
190279027,0.0872272,-0.704149
190869086,0.0771945,-0.705217
191459145,0.0668116,-0.706383
192049204,0.0567101,-0.707233
192639263,0.0462626,-0.708026
193229322,0.035815,-0.708581
193819381,0.0254838,-0.709003
194409440,0.0154867,-0.709341
194999499,0.00500584,-0.709504
195589558,-0.00531192,-0.709468
196179617,-0.0156391,-0.709378
196769676,-0.0258855,-0.709078
197359735,-0.0365365,-0.708599
197949794,-0.0467259,-0.70799
198539853,-0.0570479,-0.707219
199129912,-0.067614,-0.706364
199719971,-0.0777923,-0.705296
200310030,-0.0880826,-0.704136
200900089,-0.098577,-0.702653
201490148,-0.108899,-0.701032
202080207,-0.118926,-0.699474
202670266,-0.128856,-0.697643
203260325,-0.139237,-0.695616
203850385,-0.149542,-0.693549
204440444,-0.1596,-0.691219
205030503,-0.169748,-0.688768
205620562,-0.179963,-0.68612
206210621,-0.189991,-0.68342
206800680,-0.199947,-0.680505
207390739,-0.209901,-0.677464
207980798,-0.220119,-0.674139
208570857,-0.229791,-0.67089
209160916,-0.23952,-0.667382
209750975,-0.249442,-0.663773
210341034,-0.259237,-0.659888
210931093,-0.269125,-0.655892
211521152,-0.2781,-0.652031
212111211,-0.287847,-0.647659
212701270,-0.297438,-0.643259
213291329,-0.306698,-0.638763
213881388,-0.315861,-0.634034
214471447,-0.325354,-0.629246
215061506,-0.334493,-0.624194
215651565,-0.343395,-0.619236
216241624,-0.352462,-0.613927
216831683,-0.361432,-0.608455
217421742,-0.370256,-0.60303
218011801,-0.379098,-0.597499
218601860,-0.388077,-0.591436
219191919,-0.396424,-0.585683
219781978,-0.40497,-0.579665
220372037,-0.413532,-0.573431
220962096,-0.422013,-0.567086
221552155,-0.430252,-0.560503
222142214,-0.43845,-0.55384
222732273,-0.446273,-0.547368
223322332,-0.454182,-0.54051
223912391,-0.461943,-0.533586
224502450,-0.469607,-0.526508
225092509,-0.47711,-0.519425
225682568,-0.484647,-0.511911
226272627,-0.492057,-0.504634
226862686,-0.499243,-0.497184
227452745,-0.506197,-0.48958
228042804,-0.513272,-0.481737
228632863,-0.520202,-0.473905
229222922,-0.52692,-0.465844
229812981,-0.533594,-0.457762
230403040,-0.539984,-0.449715
230993099,-0.54623,-0.441541
231583158,-0.552296,-0.433265
232173217,-0.558432,-0.424679
232763276,-0.564351,-0.416293
233353335,-0.570109,-0.407611
233943394,-0.575652,-0.399051
234533453,-0.581151,-0.390209
235123512,-0.586576,-0.381326
235713571,-0.591746,-0.372442
236303630,-0.596748,-0.363292
236893689,-0.601696,-0.354211
237483748,-0.606408,-0.345081
238073807,-0.611021,-0.335811
238663866,-0.61554,-0.326343
239253925,-0.619969,-0.317041
239843984,-0.623898,-0.307869
240434043,-0.627881,-0.29858
241024102,-0.631918,-0.288704
241614161,-0.635549,-0.279147
242204220,-0.639147,-0.269652
242794279,-0.642333,-0.260196
243384338,-0.645634,-0.250469
243974397,-0.648714,-0.24064
244564456,-0.651666,-0.231022
245154515,-0.654404,-0.221409
245744574,-0.657071,-0.211592
246334633,-0.659723,-0.201484
246924692,-0.661912,-0.191792
247514751,-0.664188,-0.181922
248104810,-0.66619,-0.171863
248694869,-0.668,-0.162156
249284928,-0.669742,-0.152152
249874987,-0.671242,-0.142023
250465046,-0.672599,-0.132325
251055105,-0.673912,-0.122179
251645164,-0.674929,-0.112315
252235223,-0.675757,-0.102328
252825282,-0.676554,-0.0921652
253415341,-0.677175,-0.08211
254005400,-0.677617,-0.072143
254595459,-0.677892,-0.0623779
255185518,-0.678039,-0.0524996
255775577,-0.678013,-0.0427132
256365636,-0.67782,-0.0326354
256955695,-0.677479,-0.0228763
257545754,-0.677045,-0.0130789
258135813,-0.676464,-0.00303756
258725872,-0.675732,0.00641132
259315931,-0.67477,0.0163038
259905990,-0.673672,0.0260836
260496049,-0.672442,0.0355496
261086108,-0.671256,0.0450433
261676167,-0.669769,0.0547853
262266226,-0.668165,0.0643158
262856285,-0.666474,0.0734965
263446344,-0.664648,0.0832618
264036403,-0.66265,0.092464
264626462,-0.660545,0.101745
265216521,-0.658306,0.110923
265806580,-0.655958,0.120076
266396639,-0.653425,0.129261
266986698,-0.650746,0.138468
267576757,-0.648021,0.147217
268166816,-0.64515,0.156519
268756875,-0.64208,0.165343
269346934,-0.639032,0.174155
269936993,-0.635863,0.182677
270527052,-0.632456,0.191493
271117111,-0.62898,0.20016
271707170,-0.625369,0.208801
272297229,-0.621809,0.217011
272887288,-0.618021,0.225389
273477347,-0.61409,0.233936
274067406,-0.610215,0.241977
274657465,-0.606148,0.25018
275247524,-0.601917,0.258274
275837583,-0.597623,0.266377
276427642,-0.593259,0.274415
277017701,-0.588789,0.28213
277607760,-0.584299,0.289897
278197819,-0.579519,0.29776
278787878,-0.574905,0.305311
279377937,-0.570169,0.312679
279967996,-0.565312,0.320075
280558055,-0.560243,0.327592
281148114,-0.555143,0.334977
281738173,-0.549959,0.342248
282328232,-0.544732,0.349472
282918291,-0.539421,0.35652
283508350,-0.533844,0.363728
284098409,-0.528432,0.370707
284688468,-0.5228,0.377365
285278527,-0.517194,0.384138
285868586,-0.511405,0.390861
286458645,-0.505759,0.397162
287048704,-0.499964,0.403669
287638763,-0.493925,0.410146
288228822,-0.487849,0.416502
288818881,-0.48179,0.422603
289408940,-0.475575,0.428848
289998999,-0.469396,0.434827
290589058,-0.463204,0.440815
291179117,-0.45688,0.446524
291769176,-0.450519,0.452268
292359235,-0.444123,0.457949
292949294,-0.437499,0.463589
293539353,-0.430893,0.469113
294129412,-0.424173,0.474553
294719471,-0.417379,0.479934
295309530,-0.410666,0.485059
295899589,-0.403966,0.490066
296489648,-0.397062,0.495095
297079707,-0.390091,0.5001
297669766,-0.383233,0.504863
298259825,-0.376192,0.509577
298849884,-0.369339,0.514141
299439943,-0.362135,0.518793
300030002,-0.35491,0.523299
300620061,-0.347735,0.527738
301210120,-0.340553,0.531906
301800179,-0.333408,0.536115
302390238,-0.326048,0.540314
302980297,-0.318657,0.544204
303570356,-0.311153,0.548236
304160415,-0.303831,0.551912
304750474,-0.296371,0.555782
305340533,-0.288995,0.559288
305930592,-0.281513,0.562853
306520651,-0.273751,0.56641
307110711,-0.266371,0.569679
307700770,-0.25878,0.572878
308290829,-0.251025,0.576108
308880888,-0.243617,0.579069
309470947,-0.236122,0.581947
310061006,-0.228284,0.584846
310651065,-0.220549,0.587642
311241124,-0.212835,0.590454
311831183,-0.204933,0.593037
312421242,-0.197147,0.595524
313011301,-0.187747,0.598525
313601360,-0.180039,0.60078
314191419,-0.172181,0.602953
314781478,-0.164218,0.605018
315371537,-0.156235,0.607129
315961596,-0.147991,0.60917
316551655,-0.139955,0.611053
317141714,-0.132019,0.612657
317731773,-0.124098,0.614327
318321832,-0.1162,0.615819
318911891,-0.108064,0.617315
319501950,-0.100143,0.618628
320092009,-0.0920878,0.619941
320682068,-0.0840555,0.621149
321272127,-0.0758908,0.62223
321862186,-0.0676648,0.623306
322452245,-0.0595773,0.624133
323042304,-0.0513349,0.625049
323632363,-0.0433054,0.6257
324222422,-0.0352337,0.626334
324812481,-0.0269311,0.626801
325402540,-0.0184896,0.627326
325992599,-0.0103449,0.627626
326582658,-0.00209775,0.62785
327172717,0.006267,0.62795
327762776,0.0144891,0.627982
328352835,0.0228563,0.627909
328942894,0.0312231,0.627746
329532953,0.0394914,0.627494
330123012,0.0475977,0.62712
330713071,0.0559902,0.626575
331303130,0.0643444,0.626125
331893189,0.0726901,0.625335
332483248,0.0809126,0.624707
333073307,0.0893164,0.623832
333663366,0.0972864,0.622809
334253425,0.105765,0.621832
334843484,0.114058,0.620736
335433543,0.122366,0.619379
336023602,0.130596,0.618018
336613661,0.138696,0.616664
337203720,0.147108,0.615072
337793779,0.155465,0.613313
338383838,0.163684,0.611555
338973897,0.172043,0.609626
339563956,0.180374,0.607649
340154015,0.188331,0.605527
340744074,0.196963,0.603264
341334133,0.20494,0.600876
341924192,0.213501,0.598378
342514251,0.221512,0.595746
343104310,0.229758,0.593039
343694369,0.237795,0.590158
344284428,0.245729,0.587459
344874487,0.253887,0.584384
345464546,0.261992,0.581193
346054605,0.269899,0.578022
346644664,0.278114,0.574471
347234723,0.28612,0.570986
347824782,0.293855,0.567519
348414841,0.301802,0.563805
349004900,0.309773,0.559974
349594959,0.317515,0.556166
350185018,0.325346,0.552154
350775077,0.333123,0.548005
351365136,0.34098,0.543643
351955195,0.348686,0.539349
352545254,0.356388,0.534742
353135313,0.363992,0.530266
353725372,0.371579,0.525455
354315431,0.378864,0.520746
354905490,0.386328,0.515888
355495549,0.393774,0.510896
356085608,0.401203,0.505717
356675667,0.408457,0.50049
357265726,0.415562,0.495296
357855785,0.422729,0.48983
358445844,0.429857,0.484308
359035903,0.436748,0.478638
359625962,0.443784,0.472918
360216021,0.45076,0.46706
360806080,0.457735,0.46096
361396139,0.464308,0.454978
361986198,0.471044,0.448813
362576257,0.477693,0.442555
363166316,0.484136,0.436116
363756375,0.490652,0.429529
364346434,0.496929,0.423165
364936493,0.503293,0.416432
365526552,0.509659,0.409519
366116611,0.515653,0.402757
366706670,0.521533,0.395911
367296729,0.527714,0.388584
367886788,0.533612,0.381412
368476847,0.539419,0.374134
369066906,0.545166,0.366558
369656965,0.550657,0.359124
370247024,0.55613,0.351599
370837083,0.561524,0.344106
371427142,0.5667,0.336369
372017201,0.572162,0.328148
372607260,0.577187,0.320289
373197319,0.582058,0.312328
373787378,0.586852,0.304185
374377437,0.591584,0.296077
374967496,0.59619,0.287839
375557555,0.600933,0.279426
376147614,0.605393,0.27081
376737673,0.609615,0.262368
377327732,0.613765,0.253907
377917791,0.617834,0.245134
378507850,0.621619,0.236559
379097909,0.625464,0.227646
379687968,0.629294,0.218392
380278027,0.632728,0.209603
380868086,0.636158,0.200718
381458145,0.639387,0.191629
382048204,0.642511,0.182603
382638263,0.645644,0.173322
383228322,0.648468,0.164194
383818381,0.65112,0.155134
384408440,0.653717,0.145804
384998499,0.656152,0.136471
385588558,0.658536,0.126876
386178617,0.66068,0.117502
386768676,0.662815,0.107823
387358735,0.664757,0.0983496
387948794,0.666504,0.0886434
388538853,0.668153,0.0790605
389128912,0.66962,0.0695694
389718971,0.670971,0.0599138
390309030,0.672224,0.0500245
390899089,0.673299,0.0402867
391489148,0.674143,0.0307215
392079207,0.675008,0.020838
392669266,0.675533,0.0110195
393259325,0.67604,0.00125825
393849384,0.676333,-0.00867886
394439443,0.676493,-0.0184462
395029502,0.676518,-0.0283003
395619561,0.676415,-0.0384292
396209620,0.676069,-0.0483167
396799679,0.675758,-0.0579356
397389738,0.675149,-0.0676698
397979797,0.674441,-0.0777271
398569856,0.67353,-0.0876587
399159915,0.672499,-0.0974334
399749974,0.671335,-0.107373
400340033,0.670016,-0.11729
400930092,0.668463,-0.127075
401520151,0.666792,-0.137111
402110210,0.665019,-0.146853
402700269,0.663129,-0.156616
403290328,0.660993,-0.166384
403880387,0.658727,-0.176132
404470446,0.656335,-0.186014
405060505,0.653781,-0.195648
405650564,0.651056,-0.205458
406240623,0.64825,-0.214924
406830682,0.645374,-0.224366
407420741,0.642223,-0.233843
408010800,0.638935,-0.243372
408600859,0.635539,-0.252854
409190918,0.631969,-0.262354
409780977,0.628314,-0.271681
410371036,0.624474,-0.280782
410961096,0.620409,-0.290025
411551155,0.616246,-0.299463
412141214,0.611995,-0.308684
412731273,0.607638,-0.317543
413321332,0.603013,-0.326771
413911391,0.598471,-0.335484
414501450,0.593594,-0.344337
415091509,0.588619,-0.353204
415681568,0.583578,-0.361859
416271627,0.578362,-0.370625
416861686,0.57294,-0.379267
417451745,0.567382,-0.387875
418041804,0.561959,-0.396103
418631863,0.556236,-0.404444
419221922,0.550233,-0.41289
419811981,0.544399,-0.421029
420402040,0.538319,-0.429117
420992099,0.532073,-0.437159
421582158,0.525755,-0.445097
422172217,0.519174,-0.453068
422762276,0.512498,-0.460997
423352335,0.505871,-0.468686
423942394,0.499005,-0.476281
424532453,0.492177,-0.483529
425122512,0.485131,-0.490805
425712571,0.478003,-0.498245
426302630,0.470405,-0.505356
426892689,0.463105,-0.512502
427482748,0.455796,-0.519251
428072807,0.448087,-0.526089
428662866,0.440341,-0.532893
429252925,0.432506,-0.539559
429842984,0.424478,-0.546127
430433043,0.416608,-0.55242
431023102,0.408287,-0.558821
431613161,0.400129,-0.564912
432203220,0.391838,-0.570855
432793279,0.383383,-0.576744
433383338,0.374682,-0.58249
433973397,0.366001,-0.588214
434563456,0.357253,-0.593744
435153515,0.348483,-0.598988
435743574,0.33931,-0.604433
436333633,0.330491,-0.6093
436923692,0.321468,-0.614163
437513751,0.312176,-0.619074
438103810,0.303114,-0.623717
438693869,0.293907,-0.628147
439283928,0.284569,-0.63253
439873987,0.275315,-0.636745
440464046,0.265848,-0.640797
441054105,0.256323,-0.644777
441644164,0.246699,-0.648491
442234223,0.237206,-0.652153
442824282,0.227374,-0.655632
443414341,0.217563,-0.659043
444004400,0.208091,-0.662151
444594459,0.198197,-0.665198
445184518,0.188373,-0.668067
445774577,0.178444,-0.670829
446364636,0.168234,-0.673478
446954695,0.15812,-0.675933
447544754,0.148408,-0.678177
448134813,0.138467,-0.680254
448724872,0.128476,-0.68221
449314931,0.118262,-0.684078
449904990,0.108243,-0.685754
450495049,0.0979048,-0.687275
451085108,0.0878515,-0.688585
451675167,0.0773844,-0.689856
452265226,0.0671863,-0.690884
452855285,0.0571345,-0.69181
453445344,0.0468572,-0.692444
454035403,0.0364308,-0.693069
454625462,0.0261617,-0.693459
455215521,0.015823,-0.693732
455805580,0.00560289,-0.693787
456395639,-0.00453875,-0.693675
456985698,-0.0147108,-0.693452
457575757,-0.0249903,-0.693081
458165816,-0.0350382,-0.692507
458755875,-0.0452917,-0.691759
459345934,-0.0557044,-0.690905
459935993,-0.0656992,-0.68984
460526052,-0.0758902,-0.688809
461116111,-0.0859853,-0.687414
461706170,-0.0962096,-0.685882
462296229,-0.106288,-0.684254
462886288,-0.116346,-0.682391
463476347,-0.126176,-0.680502
464066406,-0.136133,-0.678455
464656465,-0.145792,-0.676333
465246524,-0.155825,-0.673867
465836583,-0.165453,-0.671498
466426642,-0.175352,-0.668778
467016701,-0.185184,-0.666004
467606760,-0.1948,-0.663071
468196819,-0.204451,-0.660014
468786878,-0.214269,-0.656856
469376937,-0.223835,-0.653451
469966996,-0.23322,-0.649959
470557055,-0.242855,-0.646346
471147114,-0.25226,-0.642651
471737173,-0.261516,-0.638735
472327232,-0.270939,-0.634619
472917291,-0.280168,-0.630557
473507350,-0.28955,-0.626025
474097409,-0.298732,-0.621607
474687468,-0.307575,-0.617001
475277527,-0.316874,-0.612155
475867586,-0.325704,-0.607245
476457645,-0.33472,-0.60199
477047704,-0.343535,-0.596836
477637763,-0.352379,-0.591591
478227822,-0.360945,-0.585979
478817881,-0.369357,-0.580387
479407940,-0.377837,-0.574611
479997999,-0.386199,-0.568744
480588058,-0.394311,-0.562836
481178117,-0.402487,-0.556586
481768176,-0.410596,-0.550318
482358235,-0.418414,-0.544056
482948294,-0.426331,-0.537543
483538353,-0.434179,-0.530831
484128412,-0.44181,-0.52403
484718471,-0.449224,-0.517339
485308530,-0.456623,-0.510278
485898589,-0.463958,-0.503154
486488648,-0.471092,-0.495961
487078707,-0.477984,-0.488863
487668766,-0.485033,-0.481397
488258825,-0.491782,-0.473944
488848884,-0.498619,-0.466319
489438943,-0.505168,-0.458479
490029002,-0.511758,-0.450618
490619061,-0.51804,-0.442758
491209120,-0.524279,-0.43469
491799179,-0.530406,-0.426575
